(1619540156.346052) can0 514#0000FE0008800300
(1619540156.346285) can0 620#2000070000000000
(1619540156.362456) can0 002#0C80400000000001
(1619540156.366153) can0 514#0000FE0008800500
(1619540156.366250) can0 620#2000070000000000
(1619540156.372672) can0 002#0C80510000000001
(1619540156.382499) can0 002#0C80620000000001
(1619540156.386189) can0 514#0000FE0008800700
(1619540156.386247) can0 620#2000070000000000
(1619540156.392760) can0 002#0C80730000000001
(1619540156.397090) can0 070#000040FF0000413D
(1619540156.397330) can0 576#0000000002221134
(1619540156.403027) can0 002#0C80040000000001
(1619540156.406175) can0 514#0000FE00083B0900
(1619540156.406192) can0 620#2000070000000000
(1619540156.406493) can0 420#0088414000400080
(1619540156.406732) can0 421#FF00FF0100B00000
(1619540156.406969) can0 422#450007FF3F5D007D
(1619540156.412550) can0 002#0C80150000000001
(1619540156.416634) can0 420#0088414000400080
(1619540156.416645) can0 421#FF00FF0200B00000
(1619540156.416819) can0 422#450007FF7F5D007D
(1619540156.417076) can0 070#000040FF0000421A
(1619540156.417319) can0 576#0000000004271277
(1619540156.422705) can0 002#0C80260000000001
(1619540156.423028) can0 410#12002913000000C0
(1619540156.423256) can0 411#0500001500000000
(1619540156.423493) can0 412#006501650115E8B8
(1619540156.423736) can0 601#08D200D300000000
(1619540156.425984) can0 514#0000FE00083B0B00
(1619540156.426232) can0 620#2000070000000000
(1619540156.426480) can0 420#0088414000400080
(1619540156.426727) can0 421#FF00FF0300B00000
(1619540156.426954) can0 422#450007FFBF5D007D
(1619540156.432801) can0 002#0C80370000000001
(1619540156.433012) can0 410#12002913000000C0
(1619540156.433255) can0 411#0500000600000004
(1619540156.433489) can0 412#006501650115E8B8
(1619540156.433728) can0 601#08D200D300000000
(1619540156.436550) can0 420#0088414000400080
(1619540156.436605) can0 421#FF00FF0400B00000
(1619540156.436912) can0 422#450007FF3F5D007D
(1619540156.437124) can0 070#000040FF00004307
(1619540156.437364) can0 576#00000000062513F1
(1619540156.438122) can0 075#000001000000017D
(1619540156.438131) can0 513#0000000000000000
(1619540156.438174) can0 512#F0F000008001FF3F
(1619540156.438446) can0 511#0000000000000000
(1619540156.438693) can0 501#000000FF00020000
(1619540156.442499) can0 002#0C80C80000000001
(1619540156.443015) can0 410#12002913000000C0
(1619540156.443274) can0 411#0500000600000004
(1619540156.443491) can0 412#006501650115E8B8
(1619540156.443740) can0 601#08D200D300000000
(1619540156.446004) can0 514#0000FE00083B0D00
(1619540156.446221) can0 620#2000070000000000
(1619540156.446477) can0 420#0088414000400080
(1619540156.446720) can0 421#FF00FF0500B00000
(1619540156.446944) can0 422#450007FF7F5D007D
(1619540156.452862) can0 002#0C80D90000000001
(1619540156.452970) can0 410#12002913000000C0
(1619540156.453477) can0 411#0500000600000004
(1619540156.453486) can0 412#006501650115E8B8
(1619540156.453734) can0 601#08D200D300000000
(1619540156.456386) can0 420#0088414000400080
(1619540156.456655) can0 421#FF00FF0600B00000
(1619540156.456910) can0 422#450007FFBF5D007D
(1619540156.457106) can0 070#000048FF00004423
(1619540156.457357) can0 576#100000000824145E
(1619540156.458102) can0 075#0000000000000230
(1619540156.458113) can0 513#0000000000000000
(1619540156.458225) can0 512#F0F000008002FF3F
(1619540156.458711) can0 511#0000000000000000
(1619540156.458719) can0 501#000000FF00030000
(1619540156.462534) can0 002#0C80EA0000000001
(1619540156.463001) can0 410#12002913000000C0
(1619540156.463248) can0 411#0500000600000004
(1619540156.463475) can0 412#006501650115E8B8
(1619540156.463721) can0 600#00000060010C005D
(1619540156.463964) can0 601#08D200D300000000
(1619540156.466237) can0 514#0000FE00083B0F00
(1619540156.466246) can0 620#2000070000000000
(1619540156.466447) can0 420#0088414000400080
(1619540156.466707) can0 421#FF00FF0700B00000
(1619540156.466933) can0 422#450007FF3F5D007D
(1619540156.472734) can0 002#0C80FB0000000001
(1619540156.473003) can0 410#12002913000000C0
(1619540156.473250) can0 411#0500000600000004
(1619540156.473480) can0 412#006501650115E8B8
(1619540156.473719) can0 601#08D200D300000000
(1619540156.476374) can0 420#0088414000400080
(1619540156.476604) can0 421#FF00FF0800B00000
(1619540156.476870) can0 422#450007FF7F5D007D
(1619540156.477139) can0 070#000048FF0000453E
(1619540156.477435) can0 576#100000000A2215F5
(1619540156.477661) can0 075#000000000000032D
(1619540156.477925) can0 513#0000000000000000
(1619540156.478163) can0 070#000040FF00004307
(1619540156.478407) can0 512#F0F000008003FF3F
(1619540156.478689) can0 511#0000000000000000
(1619540156.478923) can0 501#000000FF00040000
(1619540156.479175) can0 576#000000000C06135F
(1619540156.482447) can0 002#0C808C0000000001
(1619540156.482989) can0 410#12002913000000C0
(1619540156.483231) can0 411#05FF3F060000C004
(1619540156.483465) can0 412#006501650115E8B8
(1619540156.483708) can0 601#08D200D300000000
(1619540156.485968) can0 514#0000FE00C83A0100
(1619540156.486228) can0 620#2000070000000000
(1619540156.486444) can0 420#0088414000400080
(1619540156.486674) can0 421#FF00FF0900B00000
(1619540156.487189) can0 422#450007FFBF5D007D
(1619540156.492458) can0 002#0C809D0000000001
(1619540156.492975) can0 410#12002913000000C0
(1619540156.493228) can0 411#05FF3F060000C004
(1619540156.493425) can0 412#006501650115E8B8
(1619540156.493654) can0 601#08D200D300000000
(1619540156.496380) can0 420#0088414000400080
(1619540156.496572) can0 421#FF00FF0A00B00000
(1619540156.496900) can0 422#450007FF3F5D007D
(1619540156.497687) can0 075#000000000000047E
(1619540156.497937) can0 513#0000000000000000
(1619540156.498267) can0 070#000040FF237F0473
(1619540156.498398) can0 512#F0F000008004FF3F
(1619540156.498740) can0 511#0000000000000000
(1619540156.498900) can0 501#000000FF00050000
(1619540156.499143) can0 576#000000000E071443
(1619540156.502486) can0 002#0C80AE0000000001
(1619540156.502985) can0 410#12002913000000C0
(1619540156.503227) can0 411#05FF3F060000C004
(1619540156.503463) can0 412#006501650115E8B8
(1619540156.503699) can0 601#08D200D300000000
(1619540156.506256) can0 514#0000FE00C83A0300
(1619540156.506266) can0 620#2000070000000000
(1619540156.506435) can0 420#0088414000400080
(1619540156.506682) can0 421#FF00FF0B00B00000
(1619540156.506922) can0 422#450007FF7F5D007D
(1619540156.512529) can0 002#0C80BF0000000001
(1619540156.512990) can0 410#12002913000000C0
(1619540156.513238) can0 411#05FF3F060000C004
(1619540156.513456) can0 412#006501650115E8B8
(1619540156.513714) can0 600#00000060020C005D
(1619540156.513939) can0 601#08D200D300000000
(1619540156.516570) can0 420#0088414000400080
(1619540156.516591) can0 421#FF00FF0C00B00000
(1619540156.516911) can0 422#450007FFBF5D007D
(1619540156.517875) can0 075#0000000000000563
(1619540156.518070) can0 513#0000000000000000
(1619540156.518312) can0 070#000040FF248005A5
(1619540156.518556) can0 512#F0F000008005FF3F
(1619540156.518802) can0 511#0000000000000000
(1619540156.519118) can0 501#000000FF00060000
(1619540156.519303) can0 576#00000000102015C3
(1619540156.522547) can0 002#0C80400000000001
(1619540156.522990) can0 410#12002913000000C0
(1619540156.523230) can0 411#05FF3F060000C004
(1619540156.523450) can0 412#006501650115E8B8
(1619540156.523702) can0 601#08D200D300000000
(1619540156.525949) can0 514#0000FE00083B0500
(1619540156.526189) can0 620#2000070000000000
(1619540156.526432) can0 420#0088414000400080
(1619540156.526668) can0 421#FF00FF0D00B00000
(1619540156.526903) can0 422#450007FF3F5D007D
(1619540156.532480) can0 002#0C80510000000001
(1619540156.533042) can0 410#12002913000000C0
(1619540156.533220) can0 411#05FF3F060000C004
(1619540156.533459) can0 412#006501650114E8B8
(1619540156.533692) can0 601#08D200D300000000
(1619540156.536357) can0 420#0088414000400080
(1619540156.536599) can0 421#FF00FF0E00B00000
(1619540156.536836) can0 422#450007FF7F5D007D
(1619540156.537971) can0 075#0000000000000644
(1619540156.537980) can0 513#0000000000000000
(1619540156.538230) can0 070#000040FF23800608
(1619540156.538470) can0 512#F0F000008006FF3F
(1619540156.538730) can0 511#0000000000000000
(1619540156.538964) can0 501#000000FF00070000
(1619540156.539194) can0 576#00000000122116AB
(1619540156.542672) can0 002#0C80620000000001
(1619540156.542972) can0 410#12002913000000C0
(1619540156.543228) can0 411#05FF3F050000C004
(1619540156.543445) can0 412#006501650114E8B8
(1619540156.543685) can0 601#08D200D300000000
(1619540156.545924) can0 514#0000FE00083B0700
(1619540156.546125) can0 620#2000070000000000
(1619540156.546366) can0 420#0088414000400080
(1619540156.546602) can0 421#FF00FF0F00B00000
(1619540156.546881) can0 422#450007FFBF5D007D
(1619540156.552705) can0 002#0C80730000000001
(1619540156.552976) can0 410#12002913000000C0
(1619540156.553219) can0 411#05FF3F020000C004
(1619540156.553441) can0 412#006501650110E8B8
(1619540156.553686) can0 601#08D200D300000000
(1619540156.556341) can0 420#0088414000400080
(1619540156.556593) can0 421#FF00FF1000B00000
(1619540156.556837) can0 422#450007FF3F5D007D
(1619540156.557662) can0 075#0000000000000759
(1619540156.558201) can0 513#0000000000000000
(1619540156.558209) can0 512#F0F000008007FF3F
(1619540156.558402) can0 070#000040FFE77F07F2
(1619540156.558649) can0 511#0000000000000000
(1619540156.558900) can0 501#000000FF00080000
(1619540156.559135) can0 576#00000000142117B3
(1619540156.562523) can0 002#0C80040000000001
(1619540156.562975) can0 410#12002913000000C0
(1619540156.563211) can0 411#05FF3F020000C004
(1619540156.563451) can0 412#006501650110E8B8
(1619540156.563691) can0 600#00000060030C005D
(1619540156.563929) can0 601#08D200D300000000
(1619540156.565925) can0 514#0000FE00083B0900
(1619540156.566170) can0 620#2000070000000000
(1619540156.566399) can0 420#0088414000400080
(1619540156.566643) can0 421#FF00FF1100B00000
(1619540156.567261) can0 422#450007FF7F5D007D
(1619540156.572659) can0 002#0C80150000000001
(1619540156.572968) can0 410#12002913000000C0
(1619540156.573199) can0 411#05FF3F020000C004
(1619540156.573442) can0 412#006501650110E8B8
(1619540156.573679) can0 601#08D200D300000000
(1619540156.576544) can0 420#0088414000400080
(1619540156.576554) can0 421#FF00FF1200B00000
(1619540156.576816) can0 422#450007FFBF5D007D
(1619540156.577702) can0 075#00000000000008E2
(1619540156.577957) can0 513#0000000000000000
(1619540156.578196) can0 512#F0F000008008FF3F
(1619540156.578430) can0 070#CB7F00FFF27F08A4
(1619540156.578690) can0 511#0000000000000000
(1619540156.578922) can0 501#000000FF00090000
(1619540156.579170) can0 576#0000000016001832
(1619540156.582669) can0 002#0C80260000000001
(1619540156.582966) can0 410#12002913000000C0
(1619540156.583201) can0 411#05FF3F020000C004
(1619540156.583437) can0 412#006501650110E8B8
(1619540156.583671) can0 601#08D200D300000000
(1619540156.586049) can0 514#0000FE00083B0B00
(1619540156.586098) can0 620#2000070000000000
(1619540156.586397) can0 420#0088414000400080
(1619540156.586632) can0 421#FF00FF1300B00000
(1619540156.587360) can0 422#450007FF3F5D007D
(1619540156.592652) can0 002#0C80370000000001
(1619540156.592956) can0 410#12002913000000C0
(1619540156.593196) can0 411#05FF3F020000C004
(1619540156.593436) can0 412#006501650110E8B8
(1619540156.593673) can0 601#08D200D300000000
(1619540156.596330) can0 420#0088414000400080
(1619540156.596572) can0 421#FF00FF1400B00000
(1619540156.596809) can0 422#450007FF7F5D007D
(1619540156.597705) can0 075#00000000000009FF
(1619540156.597963) can0 513#0000000000000000
(1619540156.598203) can0 512#F0F000008009FF3F
(1619540156.598445) can0 070#BD7F00FFFC7F096B
(1619540156.598676) can0 511#0000000000000000
(1619540156.598929) can0 501#000000FF000A0000
(1619540156.599161) can0 576#00000000022219DC
(1619540156.602494) can0 002#0C80C80000000001
(1619540156.603119) can0 410#12002913000000C0
(1619540156.603167) can0 411#05FF3F020000C004
(1619540156.603440) can0 412#006501650110E8B8
(1619540156.603664) can0 601#08D200D300000000
(1619540156.605873) can0 514#0000FE00083B0D00
(1619540156.606094) can0 620#2000070000000000
(1619540156.606327) can0 420#0088414000400080
(1619540156.606576) can0 421#FF00FF1500B00000
(1619540156.606855) can0 422#450007FFBF5D007D
(1619540156.612518) can0 002#0C80D90000000001
(1619540156.612958) can0 410#12002913000000C0
(1619540156.613160) can0 411#05FF7F020000C004
(1619540156.613621) can0 412#006501650110E8B8
(1619540156.613637) can0 600#00000060040C005D
(1619540156.613886) can0 601#08D200D300000000
(1619540156.616378) can0 420#0088414000400080
(1619540156.616531) can0 421#FF00FF1600B00000
(1619540156.617050) can0 422#450007FF3F5D007D
(1619540156.617853) can0 075#0000000000000AD8
(1619540156.617978) can0 513#0000000000000000
(1619540156.618246) can0 512#F0F00000800AFF7F
(1619540156.618472) can0 070#F57F00FFFA7F0A45
(1619540156.618736) can0 511#0000000000000000
(1619540156.618963) can0 501#000000FF000B0000
(1619540156.619396) can0 576#0000000004271A9F
(1619540156.622707) can0 002#0C80EA0000000001
(1619540156.622938) can0 410#12002913000000C0
(1619540156.623531) can0 411#05FF7F020000C004
(1619540156.623540) can0 412#006501650110E8B8
(1619540156.623652) can0 601#08D200D300000000
(1619540156.625899) can0 514#0000FE00083B0F00
(1619540156.626084) can0 620#2000070000000000
(1619540156.626360) can0 420#0088414000400080
(1619540156.626564) can0 421#FF00FF1700B00000
(1619540156.626800) can0 422#450007FF7F5D007D
(1619540156.632490) can0 002#0C80FB0000000001
(1619540156.632929) can0 410#12002913000000C0
(1619540156.633178) can0 411#05FF7F020000C004
(1619540156.633415) can0 412#006501650110E8B8
(1619540156.633657) can0 601#08D200D300000000
(1619540156.636281) can0 420#0088414000400080
(1619540156.636480) can0 421#FF00FF1800B00000
(1619540156.636968) can0 422#450007FFBF5D007D
(1619540156.637814) can0 075#0000000000000BC5
(1619540156.637871) can0 513#0000000000000000
(1619540156.638121) can0 512#F0F00000800BFF7F
(1619540156.638321) can0 511#0000000000000000
(1619540156.638608) can0 070#F97F00FFFB7F0B6C
(1619540156.638867) can0 501#000000FF000C0000
(1619540156.639052) can0 576#0000000006251B19
(1619540156.642662) can0 002#0C808C0000000001
(1619540156.642938) can0 410#12002913000000C0
(1619540156.643182) can0 411#05FF7F010000C004
(1619540156.643425) can0 412#006501650110E8B8
(1619540156.643616) can0 601#08D200D300000000
(1619540156.645916) can0 514#0000FE00C83A0100
(1619540156.646079) can0 620#2000070000000000
(1619540156.646357) can0 420#0088414000400080
(1619540156.646566) can0 421#FF00FF1900B00000
(1619540156.646836) can0 422#450007FF3F5D007D
(1619540156.652652) can0 002#0C809D0000000001
(1619540156.652913) can0 410#12002913000000C0
(1619540156.653484) can0 411#05FF7F010000C004
(1619540156.653493) can0 412#006501650110E8B8
(1619540156.653627) can0 601#08D200D300000000
(1619540156.656272) can0 420#0088414000400080
(1619540156.656504) can0 421#FF00FF1A00B00000
(1619540156.656714) can0 422#450007FF7F5D007D
(1619540156.657770) can0 075#0000000000000C96
(1619540156.657882) can0 513#0000000000000000
(1619540156.658070) can0 512#F0F00000800CFF7F
(1619540156.658572) can0 511#0000000000000000
(1619540156.658582) can0 070#F37F00FF06800C1B
(1619540156.658803) can0 501#000000FF000D0000
(1619540156.659428) can0 576#0000000008241C0F
(1619540156.662508) can0 002#0C80AE0000000001
(1619540156.662930) can0 410#12002913000000C0
(1619540156.663155) can0 411#05FF7F010000C004
(1619540156.663638) can0 412#006501650110E8B8
(1619540156.663647) can0 600#00000060050C005D
(1619540156.663867) can0 601#08D200D300000000
(1619540156.665900) can0 514#0000FE00C83A0300
(1619540156.666069) can0 620#2000070000000000
(1619540156.666339) can0 420#0088414000400080
(1619540156.666551) can0 421#FF00FF1B00B00000
(1619540156.666824) can0 422#450007FFBF5D007D
(1619540156.672691) can0 002#0C80BF0000000001
(1619540156.672919) can0 410#12002913000000C0
(1619540156.673439) can0 411#05FF7F010000C004
(1619540156.673448) can0 412#006501650110E8B8
(1619540156.673608) can0 601#08D200D300000000
(1619540156.676281) can0 420#0088414000400080
(1619540156.676494) can0 421#FF00FF1C00B00000
(1619540156.676762) can0 422#450007FF3F5D007D
(1619540156.677830) can0 075#0000000000000D8B
(1619540156.677883) can0 513#0000000000000000
(1619540156.678149) can0 512#F0F00000800DFF7F
(1619540156.678374) can0 070#F27F00FF13800DCA
(1619540156.678931) can0 511#0000000000000000
(1619540156.678940) can0 501#000000FF000E0000
(1619540156.679087) can0 576#000000000A221DA4
(1619540156.682481) can0 002#0C80400000000001
(1619540156.682985) can0 410#12002913000000C0
(1619540156.683129) can0 411#05FF7F010000C004
(1619540156.683407) can0 412#00650165010FE8B8
(1619540156.683613) can0 601#08D200D300000000
(1619540156.685815) can0 514#0000FE00C83A0500
(1619540156.686059) can0 620#2000070000000000
(1619540156.686325) can0 420#0088414000400080
(1619540156.686531) can0 421#FF00FF1D00B00000
(1619540156.686803) can0 422#450007FF7F5D007D
(1619540156.692727) can0 002#0C80510000000001
(1619540156.692900) can0 410#12002913000000C0
(1619540156.693172) can0 411#05FF7F010000C004
(1619540156.693373) can0 412#00650165010FE8B8
(1619540156.693653) can0 601#08D200D300000000
(1619540156.696581) can0 420#0088414000400080
(1619540156.696591) can0 421#FF00FF1E00B00000
(1619540156.696705) can0 422#450007FFBF5D007D
(1619540156.697562) can0 075#0000000000000EAC
(1619540156.697838) can0 513#0000000000000000
(1619540156.698066) can0 512#F0F00000800EFF7F
(1619540156.698278) can0 511#0000000000000000
(1619540156.698549) can0 070#F87F00FF08800E1D
(1619540156.698762) can0 501#000000FF000F0000
(1619540156.698999) can0 576#000000000C061EDE
(1619540156.702487) can0 002#0C80620000000001
(1619540156.703188) can0 410#12002913000000C0
(1619540156.703196) can0 411#05FF7F000000C004
(1619540156.703355) can0 412#00650165010FE8B8
(1619540156.703895) can0 601#08D200D300000000
(1619540156.706066) can0 514#0000FE00C83A0700
(1619540156.706075) can0 620#2000070000000000
(1619540156.706309) can0 420#0088414000400080
(1619540156.706615) can0 421#FF00FF1F00B00000
(1619540156.706769) can0 422#450007FF3F5D007D
(1619540156.712499) can0 002#0C80730000000001
(1619540156.712922) can0 410#12002913000000C0
(1619540156.713120) can0 411#05FF7F000000C004
(1619540156.713648) can0 412#00650165010EE8B8
(1619540156.713657) can0 600#00000060060C005D
(1619540156.713890) can0 601#08D200D300000000
(1619540156.716262) can0 420#0088414000400080
(1619540156.716461) can0 421#FF00FF2000B00000
(1619540156.716737) can0 422#450007FF7F5D007D
(1619540156.717783) can0 075#0000000000000FB1
(1619540156.717877) can0 513#0000000000000000
(1619540156.718114) can0 512#F0F00000800FFF7F
(1619540156.718318) can0 511#0000000000000000
(1619540156.718810) can0 070#F77F00FFF37F0F15
(1619540156.718819) can0 501#000000FF00100000
(1619540156.719044) can0 576#000000000E071F8C
(1619540156.722515) can0 002#0C80040000000001
(1619540156.723149) can0 410#12002913000000C0
(1619540156.723158) can0 411#05FF7F000000C004
(1619540156.723349) can0 412#00650165010EE8B8
(1619540156.723618) can0 601#08D200D300000000
(1619540156.725821) can0 514#0000FE00C83A0900
(1619540156.726034) can0 620#2000070000000000
(1619540156.726558) can0 420#0088414000400080
(1619540156.726567) can0 421#FF00FF2100B00000
(1619540156.726763) can0 422#450007FFBF5D007D
(1619540156.732655) can0 002#0C80150000000001
(1619540156.732897) can0 410#12002913000000C0
(1619540156.733159) can0 411#05FFBF000000C004
(1619540156.733342) can0 412#00650165010EE8B8
(1619540156.733629) can0 601#08D200D300000000
(1619540156.736242) can0 420#0088414000400080
(1619540156.736447) can0 421#FF00FF2200B00000
(1619540156.736721) can0 422#450007FF3F5D007D
(1619540156.737778) can0 075#000000000000000A
(1619540156.737890) can0 513#0000000000000000
(1619540156.738104) can0 512#F0F000008010FF7F
(1619540156.738325) can0 511#0000000000000000
(1619540156.738803) can0 070#F37F00FFDD7F00FE
(1619540156.738813) can0 501#000000FF00110000
(1619540156.739044) can0 576#00000000102010AA
(1619540156.742432) can0 002#0C80260000000001
(1619540156.743051) can0 410#12002913000000C0
(1619540156.743113) can0 411#05FFBF000000C004
(1619540156.743372) can0 412#00650165010EE8B8
(1619540156.743586) can0 601#08D200D300000000
(1619540156.745803) can0 514#0000FE00C83A0B00
(1619540156.746023) can0 620#2000070000000000
(1619540156.746562) can0 420#0088414000400080
(1619540156.746572) can0 421#FF00FF2300B00000
(1619540156.746766) can0 422#450007FF7F5D007D
(1619540156.752471) can0 002#0C80370000000001
(1619540156.752904) can0 410#12002913000000C0
(1619540156.753113) can0 411#05FFBF000000C004
(1619540156.753369) can0 412#00650165010EE8B8
(1619540156.753576) can0 601#08D200D300000000
(1619540156.756715) can0 420#0088414000400080
(1619540156.756725) can0 421#FF00FF2400B00000
(1619540156.756728) can0 422#450007FFBF5D007D
(1619540156.757686) can0 075#0000000000000117
(1619540156.757891) can0 513#0000000000000000
(1619540156.758354) can0 512#F0F000008011FF7F
(1619540156.758363) can0 070#EF7F00FFF27F0157
(1619540156.758652) can0 511#0000000000000000
(1619540156.758862) can0 501#000000FF00120000
(1619540156.759099) can0 576#00000000122111F8
(1619540156.762489) can0 002#0C80C80000000001
(1619540156.762910) can0 410#12002913000000C0
(1619540156.763107) can0 411#05FFBF000000C004
(1619540156.763378) can0 412#00650165010EE8B8
(1619540156.763621) can0 600#00000060070C005D
(1619540156.764143) can0 601#08D200D300000000
(1619540156.765961) can0 514#0000FE00C83A0D00
(1619540156.766078) can0 620#2000070000000000
(1619540156.766256) can0 420#0088414000400080
(1619540156.766490) can0 421#FF00FF2500B00000
(1619540156.766725) can0 422#450007FF3F5D007D
(1619540156.772786) can0 002#0C80D90000000001
(1619540156.773013) can0 410#12002913000000C0
(1619540156.773212) can0 411#05FFBF000000C004
(1619540156.773336) can0 412#00650165010EE8B8
(1619540156.773572) can0 601#08D200D300000000
(1619540156.776217) can0 420#0088414000400080
(1619540156.776451) can0 421#FF00FF2600B00000
(1619540156.776681) can0 422#450007FF7F5D007D
(1619540156.777944) can0 075#0000000000000230
(1619540156.777953) can0 513#0000000000000000
(1619540156.778177) can0 512#F0F000008012FF7F
(1619540156.778444) can0 070#F77F00FF068002D4
(1619540156.778701) can0 511#0000000000000000
(1619540156.778904) can0 501#000000FF00130000
(1619540156.779140) can0 576#00000000142112DA
(1619540156.782538) can0 002#0C80EA0000000001
(1619540156.782870) can0 410#12002913000000C0
(1619540156.783093) can0 411#05FFBF000000C004
(1619540156.783336) can0 412#00650165010EE8B8
(1619540156.783566) can0 601#08D200D300000000
(1619540156.785750) can0 514#0000FE00C83A0F00
(1619540156.785990) can0 620#2000070000000000
(1619540156.786228) can0 420#0088414000400080
(1619540156.786464) can0 421#FF00FF2700B00000
(1619540156.786750) can0 422#450007FFBF5D007D
(1619540156.792467) can0 002#0C80FB0000000001
(1619540156.792918) can0 410#12002913000000C0
(1619540156.793109) can0 411#05FFBF000000C004
(1619540156.793357) can0 412#00650165010EE8B8
(1619540156.793565) can0 601#08D200D300000000
(1619540156.796463) can0 420#0088414000400080
(1619540156.796472) can0 421#FF00FF2800B00000
(1619540156.796654) can0 422#450007FF3F5D007D
(1619540156.797736) can0 075#000000000000032D
(1619540156.797973) can0 513#0000000000000000
(1619540156.798182) can0 512#F0F000008013FF7F
(1619540156.798668) can0 070#FD7F00FFF27F036E
(1619540156.798677) can0 511#0000000000000000
(1619540156.798904) can0 501#000000FF00140000
(1619540156.799154) can0 576#00000000160013FD
(1619540156.802467) can0 002#0C808C0000000001
(1619540156.802913) can0 410#12002913000000C0
(1619540156.803101) can0 411#05FFBF000000C004
(1619540156.803306) can0 412#00650165010EE8B8
(1619540156.803554) can0 601#08D200D300000000
(1619540156.805726) can0 514#0000FE00C83A0100
(1619540156.805975) can0 620#2000070000000000
(1619540156.806217) can0 420#0088414000400080
(1619540156.806458) can0 421#FF00FF2900B00000
(1619540156.806717) can0 422#450007FF7F5D007D
(1619540156.812489) can0 002#0C809D0000000001
(1619540156.812912) can0 410#12002913000000C0
(1619540156.813090) can0 411#05FFBF000000C004
(1619540156.813366) can0 412#00650165010EE8B8
(1619540156.813573) can0 600#00000060080C005D
(1619540156.814046) can0 601#08D200D300000000
(1619540156.816226) can0 420#0088414000400080
(1619540156.816470) can0 421#FF00FF2A00B00000
(1619540156.816667) can0 422#450007FFBF5D007D
(1619540156.817944) can0 075#0000000000010432
(1619540156.817984) can0 513#0000000000000000
(1619540156.818221) can0 512#F0F000008014FFBF
(1619540156.818740) can0 070#FA7F00FFE47F04AE
(1619540156.818750) can0 511#0000000000000000
(1619540156.818937) can0 501#000000FF00150000
(1619540156.819226) can0 576#00000000022014C5
(1619540156.822677) can0 002#0C80AE0000000001
(1619540156.822874) can0 410#12002913000000C0
(1619540156.823100) can0 411#05FFBF000000C004
(1619540156.823335) can0 412#00650165010EE8B8
(1619540156.823602) can0 601#08D200D300000000
(1619540156.825935) can0 514#0000FE00C83A0300
(1619540156.826019) can0 620#2000070000000000
(1619540156.826216) can0 420#0088414000400080
(1619540156.826451) can0 421#FF00FF2B00B00000
(1619540156.826692) can0 422#450007FF3F5D007D
(1619540156.832418) can0 002#0C80BF0000000001
(1619540156.833164) can0 410#12002913000000C0
(1619540156.833174) can0 411#05FFBF000000C004
(1619540156.833319) can0 412#00650165010EE8B8
(1619540156.833961) can0 601#08D200D300000000
(1619540156.836187) can0 420#0088414000400080
(1619540156.836411) can0 421#FF00FF2C00B00000
(1619540156.836976) can0 422#450007FF7F5D007D
(1619540156.837692) can0 075#000000000001052F
(1619540156.837907) can0 513#0000000000000000
(1619540156.838423) can0 512#F0F000008015FFBF
(1619540156.838432) can0 070#EE7F00FF028005B7
(1619540156.838642) can0 511#0000000000000000
(1619540156.838880) can0 501#000000FF00160000
(1619540156.839122) can0 576#0000000004221545
(1619540156.842663) can0 002#0C80400000000001
(1619540156.842900) can0 410#12002913000000C0
(1619540156.843107) can0 411#05FFBF000000C004
(1619540156.843336) can0 412#00650165010EE8B8
(1619540156.843551) can0 601#08D200D300000000
(1619540156.845735) can0 514#0000FE00083B0500
(1619540156.846114) can0 620#2000070000000000
(1619540156.846219) can0 420#0088414000400080
(1619540156.846493) can0 421#FF00FF2D00B00000
(1619540156.846718) can0 422#450007FFBF5D007D
(1619540156.852490) can0 002#0C80510000000001
(1619540156.852911) can0 410#12002913000000C0
(1619540156.853068) can0 411#05FFBF000000C004
(1619540156.853341) can0 412#00650165010EE8B8
(1619540156.853566) can0 601#08D200D300000000
(1619540156.856217) can0 420#0088414000400080
(1619540156.856400) can0 421#FF00FF2E00B00000
(1619540156.856664) can0 422#450007FF3F5D007D
(1619540156.857911) can0 075#0000000000010608
(1619540156.857966) can0 513#0000000000000000
(1619540156.858223) can0 512#F0F000008016FFBF
(1619540156.858453) can0 070#F17F00FFF17F0630
(1619540156.858925) can0 511#0000000000000000
(1619540156.858935) can0 501#000000FF00170000
(1619540156.859168) can0 576#000000000626164C
(1619540156.862480) can0 002#0C80620000000001
(1619540156.862911) can0 410#12002913000000C0
(1619540156.863067) can0 411#05FFFF000000C004
(1619540156.863566) can0 412#00650165010EE8B8
(1619540156.863575) can0 600#00000060090C005D
(1619540156.863793) can0 601#08D200D300000000
(1619540156.865861) can0 514#0000FE00083B0700
(1619540156.865964) can0 620#2000070000000000
(1619540156.866202) can0 420#0088414000400080
(1619540156.866432) can0 421#FF00FF2F00B00000
(1619540156.866940) can0 422#450007FF7F5D007D
(1619540156.872508) can0 002#0C80730000000001
(1619540156.873116) can0 410#12002913000000C0
(1619540156.873126) can0 411#05FFFF000000C004
(1619540156.873302) can0 412#00650165010EE8B8
(1619540156.873565) can0 601#08D200D300000000
(1619540156.876150) can0 420#0088414000400080
(1619540156.876348) can0 421#FF00FF3000B00000
(1619540156.876631) can0 422#450007FFBF5D007D
(1619540156.877745) can0 075#0000000000010715
(1619540156.877952) can0 513#0000000000000000
(1619540156.878231) can0 512#F0F000008017FFBF
(1619540156.878432) can0 070#F37F00FFF27F071B
(1619540156.878718) can0 511#0000000000000000
(1619540156.878927) can0 501#000000FF00180000
(1619540156.879170) can0 576#000000000825178C
(1619540156.882525) can0 002#0C80040000000001
(1619540156.883119) can0 410#12002913000000C0
(1619540156.883128) can0 411#05FFFF000000C004
(1619540156.883292) can0 412#00650165010EE8B8
(1619540156.883937) can0 601#08D200D300000000
(1619540156.885910) can0 514#0000FE00883A0900
(1619540156.885994) can0 620#2000070000000000
(1619540156.886189) can0 420#0088414000400080
(1619540156.886904) can0 421#FF00FF3100B00000
(1619540156.886913) can0 422#450007FF3F5D007D
(1619540156.892646) can0 002#0C80150000000001
(1619540156.892814) can0 410#12002913000000C0
(1619540156.893323) can0 411#05FFFF000000C004
(1619540156.893331) can0 412#00650165010EE8B8
(1619540156.893523) can0 601#08D200D300000000
(1619540156.896155) can0 420#0088414000400080
(1619540156.896341) can0 421#FF00FF3200B00000
(1619540156.896883) can0 422#450007FF7F5D007D
(1619540156.897748) can0 075#00000000000108AE
(1619540156.897953) can0 513#0000000000000000
(1619540156.898230) can0 512#F0F000008018FFBF
(1619540156.898436) can0 070#F57F00FF088008B5
(1619540156.898963) can0 511#0000000000000000
(1619540156.898972) can0 501#000000FF00190000
(1619540156.899170) can0 576#000000000A201855
(1619540156.902475) can0 002#0C80260000000001
(1619540156.902830) can0 410#12002913000000C0
(1619540156.903093) can0 411#05FFFF000000C004
(1619540156.903281) can0 412#00650165010EE8B8
(1619540156.903923) can0 601#08D200D300000000
(1619540156.905892) can0 514#0000FE00883A0B00
(1619540156.905954) can0 620#2000070000000000
(1619540156.906211) can0 420#0088414000400080
(1619540156.906420) can0 421#FF00FF3300B00000
(1619540156.906679) can0 422#450007FFBF5D007D
(1619540156.912472) can0 002#0C80370000000001
(1619540156.912837) can0 410#12002913000000C0
(1619540156.913049) can0 411#05FFFF000000C004
(1619540156.913315) can0 412#00650165010EE8B8
(1619540156.913529) can0 600#000000600A0C005D
(1619540156.913804) can0 601#08D200D300000000
(1619540156.916147) can0 420#0088414000400080
(1619540156.916396) can0 421#FF00FF3400B00000
(1619540156.916633) can0 422#450007FF3F5D007D
(1619540156.917857) can0 075#00000000000109B3
(1619540156.917912) can0 513#0000000000000000
(1619540156.918152) can0 512#F0F000008019FFBF
(1619540156.918408) can0 070#F17F00FF048009CB
(1619540156.918645) can0 511#0000000000000000
(1619540156.918868) can0 501#000000FF001A0000
(1619540156.919107) can0 576#000000000C20194D
(1619540156.922657) can0 002#0C80C80000000001
(1619540156.922796) can0 410#12002913000000C0
(1619540156.923340) can0 411#05FFFF000000C004
(1619540156.923350) can0 412#00650165010EE8B8
(1619540156.923517) can0 601#08D200D300000000
(1619540156.925709) can0 514#0000FE00083B0D00
(1619540156.925949) can0 620#2000070000000000
(1619540156.926202) can0 420#0088414000400080
(1619540156.926424) can0 421#FF00FF3500B00000
(1619540156.926682) can0 422#450007FF7F5D007D
(1619540156.932811) can0 002#0C80D90000000001
(1619540156.932821) can0 410#12002913000000C0
(1619540156.933063) can0 411#05FFFF000000C004
(1619540156.933309) can0 412#00650165010EE8B8
(1619540156.933537) can0 601#08D200D300000000
(1619540156.936107) can0 420#0088414000400080
(1619540156.936321) can0 421#FF00FF3600B00000
(1619540156.937045) can0 422#450007FFBF5D007D
(1619540156.937990) can0 075#0000000000010A94
(1619540156.937999) can0 513#0000000000000000
(1619540156.938216) can0 512#F0F00000801AFFBF
(1619540156.938705) can0 070#F97F00FF09800ABB
(1619540156.938714) can0 511#0000000000000000
(1619540156.938927) can0 501#000000FF001B0000
(1619540156.939164) can0 576#000000000E251A08
(1619540156.942824) can0 002#0C80EA0000000001
(1619540156.942835) can0 410#12002913000000C0
(1619540156.943062) can0 411#05FFFF000000C004
(1619540156.943297) can0 412#00650165010EE8B8
(1619540156.943508) can0 601#08D200D300000000
(1619540156.945721) can0 514#0000FE00083B0F00
(1619540156.946216) can0 620#2000070000000000
(1619540156.946220) can0 420#0088414000400080
(1619540156.946387) can0 421#FF00FF3700B00000
(1619540156.946619) can0 422#450007FF3F5D007D
(1619540156.952454) can0 002#0C80FB0000000001
(1619540156.952831) can0 410#12002913000000C0
(1619540156.953029) can0 411#05FFFF000000C004
(1619540156.953306) can0 412#00650165010EE8B8
(1619540156.953532) can0 601#08D200D300000000
(1619540156.956095) can0 420#0088414000400080
(1619540156.956312) can0 421#FF00FF3800B00000
(1619540156.956541) can0 422#450007FF7F5D007D
(1619540156.957677) can0 075#0000000000010B89
(1619540156.957926) can0 513#0000000000000000
(1619540156.958212) can0 512#F0F00000801BFFBF
(1619540156.958413) can0 070#F17F00FF0C800BFD
(1619540156.959035) can0 511#0000000000000000
(1619540156.959044) can0 501#000000FF001C0000
(1619540156.959157) can0 576#0000000010281B3F
(1619540156.962485) can0 002#0C808C0000000001
(1619540156.962785) can0 410#12002913000000C0
(1619540156.963051) can0 411#05FFFF000000C004
(1619540156.963266) can0 412#00650165010EE8B8
(1619540156.963603) can0 600#000000600B0C005D
(1619540156.963742) can0 601#08D200D300000000
(1619540156.965794) can0 514#0000FE00083B0100
(1619540156.965903) can0 620#2000070000000000
(1619540156.966137) can0 420#0088414000400080
(1619540156.966418) can0 421#FF00FF3900B00000
(1619540156.966641) can0 422#450007FFBF5D007D
(1619540156.972808) can0 002#0C809D0000000001
(1619540156.972817) can0 410#12002913000000C0
(1619540156.973047) can0 411#05FFFF000000C004
(1619540156.973545) can0 412#00650165010EE8B8
(1619540156.973554) can0 601#08D200D300000000
(1619540156.976103) can0 420#0088414000400080
(1619540156.976288) can0 421#FF00FF3A00B00000
(1619540156.976812) can0 422#450007FF3F5D007D
(1619540156.977686) can0 075#0000000000010CDA
(1619540156.977931) can0 513#0000000000000000
(1619540156.978429) can0 512#F0F00000801CFFBF
(1619540156.978438) can0 070#E97F00FF02800CCC
(1619540156.978652) can0 511#0000000000000000
(1619540156.978898) can0 501#000000FF001D0000
(1619540156.979140) can0 576#0000000012211C79
(1619540156.982466) can0 002#0C80AE0000000001
(1619540156.982799) can0 410#12002913000000C0
(1619540156.983016) can0 411#05FFFF000000C004
(1619540156.983244) can0 412#00650165010EE8B8
(1619540156.983489) can0 601#08D200D300000000
(1619540156.985631) can0 514#0000FE00083B0300
(1619540156.985876) can0 620#2000070000000000
(1619540156.986170) can0 420#0088414000400080
(1619540156.986385) can0 421#FF00FF3B00B00000
(1619540156.986641) can0 422#450007FF7F5D007D
(1619540156.992815) can0 002#0C80BF0000000001
(1619540156.992826) can0 410#12002913000000C0
(1619540156.993040) can0 411#05FF3F000000C004
(1619540156.993288) can0 412#00650165010EE8B8
(1619540156.993487) can0 601#08D200D300000000
(1619540156.996099) can0 420#0088414000400080
(1619540156.996302) can0 421#FF00FF3C00B00000
(1619540156.996563) can0 422#450007FFBF5D007D
(1619540156.997677) can0 075#0000000000010DC7
(1619540156.997905) can0 513#0000000000000000
(1619540156.998168) can0 512#F0F00000801DFFBF
(1619540156.998378) can0 070#F07F00FFF17F0DA2
(1619540156.998649) can0 511#0000000000000000
(1619540156.998866) can0 501#000000FF001E0000
(1619540156.999096) can0 576#0000000014221DB5
(1619540157.002465) can0 002#0C80400000000001
(1619540157.002767) can0 410#12002913000000C0
(1619540157.003238) can0 411#05FF3F000000C004
(1619540157.003246) can0 412#00640164010EE8B8
(1619540157.003514) can0 601#08D200D300000000
(1619540157.005866) can0 514#0000FE00083B0500
(1619540157.005876) can0 620#2000070000000000
(1619540157.006144) can0 420#0088414000400080
(1619540157.006403) can0 421#FF00FF3D00B00000
(1619540157.006612) can0 422#450007FF3F5D007D
(1619540157.012466) can0 002#0C80510000000001
(1619540157.012780) can0 410#12002913000000C0
(1619540157.013062) can0 411#05FF3F000000C004
(1619540157.013251) can0 412#00640164010EE8B8
(1619540157.013539) can0 600#000000600C0C005D
(1619540157.013750) can0 601#08D200D300000000
(1619540157.016139) can0 420#0088414000400080
(1619540157.016310) can0 421#FF00FF3E00B00000
(1619540157.016583) can0 422#450007FF7F5D007D
(1619540157.017689) can0 075#0000000000010EE0
(1619540157.017908) can0 513#0000000000000000
(1619540157.018405) can0 512#F0F00000801EFF3F
(1619540157.018414) can0 070#FB7F00FF06800EF3
(1619540157.018633) can0 511#0000000000000000
(1619540157.018872) can0 501#000000FF001F0000
(1619540157.019119) can0 576#0000000016001E7C
(1619540157.022663) can0 002#0C80620000000001
(1619540157.022780) can0 410#12002913000000C0
(1619540157.023282) can0 411#05FF3F000000C004
(1619540157.023292) can0 412#00640164010EE8B8
(1619540157.023507) can0 601#08D200D300000000
(1619540157.025653) can0 514#0000FE00083B0700
(1619540157.025872) can0 620#2000070000000000
(1619540157.026103) can0 420#0088414000400080
(1619540157.026611) can0 421#FF00FF3F00B00000
(1619540157.026620) can0 422#450007FFBF5D007D
(1619540157.032679) can0 002#0C80730000000001
(1619540157.032774) can0 410#12002913000000C0
(1619540157.033023) can0 411#05FF3F000000C004
(1619540157.033530) can0 412#00640164010EE8B8
(1619540157.033539) can0 601#08D200D300000000
(1619540157.036044) can0 420#0088414000400080
(1619540157.036300) can0 421#FF00FF4000B00000
(1619540157.036537) can0 422#450007FF3F5D007D
(1619540157.037672) can0 075#0000000000020F29
(1619540157.037921) can0 513#0000000000000000
(1619540157.038157) can0 512#F0F00000801FFF3F
(1619540157.038405) can0 070#FD7F00FF0B800FB8
(1619540157.038659) can0 511#0000000000000000
(1619540157.038903) can0 501#000000FF00200000
(1619540157.039152) can0 576#0000000002201F0A
(1619540157.042523) can0 002#0C80040000000001
(1619540157.042764) can0 410#12002913000000C0
(1619540157.043028) can0 411#05FF3F000000C004
(1619540157.043266) can0 412#00640164010EE8B8
(1619540157.043507) can0 601#08D200D300000000
(1619540157.045649) can0 514#0000FE00083B0900
(1619540157.045897) can0 620#2000070000000000
(1619540157.046133) can0 420#0088414000400080
(1619540157.046325) can0 421#FF00FF4100B00000
(1619540157.046568) can0 422#450007FF7F5D007D
(1619540157.052475) can0 002#0C80150000000001
(1619540157.052812) can0 410#12002913000000C0
(1619540157.052998) can0 411#05FF3F000000C004
(1619540157.053511) can0 412#00640164010EE8B8
(1619540157.053519) can0 601#08D200D300000000
(1619540157.056185) can0 420#0088414000400080
(1619540157.056242) can0 421#FF00FF4200B00000
(1619540157.056525) can0 422#450007FFBF5D007D
(1619540157.057734) can0 075#0000000000020092
(1619540157.057941) can0 513#0000000000000000
(1619540157.058389) can0 512#F0F000008020FF3F
(1619540157.058440) can0 070#F87F00FF028000B4
(1619540157.058963) can0 511#0000000000000000
(1619540157.058973) can0 501#000000FF00210000
(1619540157.059166) can0 576#00000000040010C1
(1619540157.062454) can0 002#0C80260000000001
(1619540157.062773) can0 410#12002913000000C0
(1619540157.062984) can0 411#05FF3F000000C004
(1619540157.063470) can0 412#00640164010EE8B8
(1619540157.063479) can0 600#000000600D0C005D
(1619540157.063711) can0 601#08D200D300000000
(1619540157.065625) can0 514#0000FE00083B0B00
(1619540157.065880) can0 620#2000070000000000
(1619540157.066083) can0 420#0088414000400080
(1619540157.066582) can0 421#FF00FF4300B00000
(1619540157.066592) can0 422#450007FF3F5D007D
(1619540157.072405) can0 002#0C80370000000001
(1619540157.072780) can0 410#12002913000000C0
(1619540157.073009) can0 411#05FF3F000000C004
(1619540157.073258) can0 412#00640164010EE8B8
(1619540157.073462) can0 601#08D200D300000000
(1619540157.076164) can0 420#0088414000400080
(1619540157.076281) can0 421#FF00FF4400B00000
(1619540157.076532) can0 422#450007FF7F5D007D
(1619540157.078008) can0 075#00000000000301C3
(1619540157.078016) can0 513#0000000000000000
(1619540157.078190) can0 512#F0F000008021FF3F
(1619540157.078459) can0 070#F57F00FF018001C3
(1619540157.078660) can0 511#0000000000000000
(1619540157.078931) can0 501#000000FF00220000
(1619540157.079143) can0 576#00000000021311B9
(1619540157.082657) can0 002#0C80C80000000001
(1619540157.082773) can0 410#12002913000000C0
(1619540157.083021) can0 411#05FF3F000000C004
(1619540157.083212) can0 412#00640164010EE8B8
(1619540157.083484) can0 601#08D200D300000000
(1619540157.085616) can0 514#0000FE00083B0D00
(1619540157.085870) can0 620#2000070000000000
(1619540157.086112) can0 420#0088414000400080
(1619540157.086308) can0 421#FF00FF4500B00000
(1619540157.086581) can0 422#450007FFBF5D007D
(1619540157.092506) can0 002#0C80D90000000001
(1619540157.092801) can0 410#12002913000000C0
(1619540157.092977) can0 411#05FF3F000000C004
(1619540157.093247) can0 412#00640164010EE8B8
(1619540157.093448) can0 601#08D200D300000000
(1619540157.096017) can0 420#0088414000400080
(1619540157.096231) can0 421#FF00FF4600B00000
(1619540157.096493) can0 422#450007FF3F5D007D
(1619540157.097712) can0 075#00000000000302E4
(1619540157.097945) can0 513#0000000000000000
(1619540157.098417) can0 512#F0F000008022FF3F
(1619540157.098425) can0 070#F57F00FF0F8002ED
(1619540157.098657) can0 511#0000000000000000
(1619540157.098902) can0 501#000000FF00230000
(1619540157.099144) can0 576#000000000403122F
(1619540157.102504) can0 002#0C80EA0000000001
(1619540157.102732) can0 410#12002913000000C0
(1619540157.102975) can0 411#05FF3F000000C004
(1619540157.103245) can0 412#00640164010EE8B8
(1619540157.103472) can0 601#08D200D300000000
(1619540157.105788) can0 514#0000FE00083B0F00
(1619540157.105899) can0 620#2000070000000000
(1619540157.106080) can0 420#0088414000400080
(1619540157.106329) can0 421#FF00FF4700B00000
(1619540157.106531) can0 422#450007FF7F5D007D
(1619540157.112472) can0 002#0C80FB0000000001
(1619540157.112804) can0 410#12002913000000C0
(1619540157.112971) can0 411#05FF3F000000C004
(1619540157.113233) can0 412#00640164010EE8B8
(1619540157.113445) can0 600#000000600E0C005D
(1619540157.113718) can0 601#08D200D300000000
(1619540157.116015) can0 420#0088414000400080
(1619540157.116335) can0 421#FF00FF4800B00000
(1619540157.116504) can0 422#450007FFBF5D007D
(1619540157.118043) can0 075#00000000000303F9
(1619540157.118051) can0 513#0000000000000000
(1619540157.118201) can0 512#F0F000008023FF3F
(1619540157.118478) can0 070#F17F00FF1580038E
(1619540157.118708) can0 511#0000000000000000
(1619540157.118925) can0 501#000000FF00240000
(1619540157.119172) can0 576#00000000063313F0
(1619540157.122652) can0 002#0C808C0000000001
(1619540157.122754) can0 410#12002913000000C0
(1619540157.123006) can0 411#05FF7F000000C004
(1619540157.123204) can0 412#00640164010EE8B8
(1619540157.123461) can0 601#08D200D300000000
(1619540157.125600) can0 514#0000FE00083B0100
(1619540157.125810) can0 620#2000070000000000
(1619540157.126084) can0 420#0088414000400080
(1619540157.126319) can0 421#FF00FF4900B00000
(1619540157.126834) can0 422#450007FF3F5D007D
(1619540157.132649) can0 002#0C809D0000000001
(1619540157.132708) can0 410#12002913000000C0
(1619540157.132991) can0 411#05FF7F000000C004
(1619540157.133220) can0 412#00640164010EE8B8
(1619540157.133735) can0 601#08D200D300000000
(1619540157.136020) can0 420#0088414000400080
(1619540157.136246) can0 421#FF00FF4A00B00000
(1619540157.136754) can0 422#450007FF7F5D007D
(1619540157.137725) can0 075#00000000000304AA
(1619540157.137949) can0 513#0000000000000000
(1619540157.138449) can0 512#F0F000008024FF3F
(1619540157.138457) can0 070#ED7F00FFED7F041A
(1619540157.138658) can0 511#0000000000000000
(1619540157.138901) can0 501#000000FF00250000
(1619540157.139128) can0 576#0000000008221452
(1619540157.142701) can0 002#0C80AE0000000001
(1619540157.142717) can0 410#12002913000000C0
(1619540157.142971) can0 411#05FF7F000000C004
(1619540157.143491) can0 412#00640164010EE8B8
(1619540157.143502) can0 601#08D200D300000000
(1619540157.145596) can0 514#0000FE00083B0300
(1619540157.145797) can0 620#2000070000000000
(1619540157.146041) can0 420#0088414000400080
(1619540157.146317) can0 421#FF00FF4B00B00000
(1619540157.146544) can0 422#450007FFBF5D007D
(1619540157.152429) can0 002#0C80BF0000000001
(1619540157.152701) can0 410#12002913000000C0
(1619540157.152977) can0 411#05FF7F000000C004
(1619540157.153201) can0 412#00640164010EE8B8
(1619540157.153447) can0 601#08D200D300000000
(1619540157.155978) can0 420#0088414000400080
(1619540157.156203) can0 421#FF00FF4C00B00000
(1619540157.156463) can0 422#450007FF3F5D007D
(1619540157.157925) can0 075#00000000000305B7
(1619540157.157980) can0 513#0000000000000000
(1619540157.158097) can0 512#F0F000008025FF3F
(1619540157.158360) can0 070#F17F00FFE67F0585
(1619540157.158606) can0 511#0000000000000000
(1619540157.158860) can0 501#000000FF00260000
(1619540157.159056) can0 576#000000000A211598
(1619540157.162441) can0 002#0C80400000000001
(1619540157.162738) can0 410#12002913000000C0
(1619540157.162973) can0 411#05FF7F000000C004
(1619540157.163216) can0 412#00640164010EE8B8
(1619540157.163416) can0 600#000000600F0C005D
(1619540157.163698) can0 601#08D200D300000000
(1619540157.165577) can0 514#0000FE00083B0500
(1619540157.165786) can0 620#2000070000000000
(1619540157.166023) can0 420#0088414000400080
(1619540157.166267) can0 421#FF00FF4D00B00000
(1619540157.166502) can0 422#450007FF7F5D007D
(1619540157.172459) can0 002#0C80510000000001
(1619540157.172711) can0 410#12002913000000C0
(1619540157.172967) can0 411#05FF7F000000C004
(1619540157.173177) can0 412#00640164010EE8B8
(1619540157.173416) can0 601#08D200D300000000
(1619540157.176185) can0 420#0088414000400080
(1619540157.176200) can0 421#FF00FF4E00B00000
(1619540157.176452) can0 422#450007FFBF5D007D
(1619540157.177813) can0 075#0000000000030690
(1619540157.177870) can0 513#0000000000000000
(1619540157.178130) can0 512#F0F000008026FF3F
(1619540157.178327) can0 070#F17F00FFFC7F06B5
(1619540157.178609) can0 511#0000000000000000
(1619540157.178874) can0 501#000000FF00270000
(1619540157.179054) can0 576#000000000C231622
(1619540157.182661) can0 002#0C80620000000001
(1619540157.182708) can0 410#12002913000000C0
(1619540157.182980) can0 411#05FF7F000000C004
(1619540157.183173) can0 412#00640164010EE8B8
(1619540157.183696) can0 601#08D200D300000000
(1619540157.185560) can0 514#0000FE00083B0700
(1619540157.185793) can0 620#2000070000000000
(1619540157.186033) can0 420#0088414000400080
(1619540157.186531) can0 421#FF00FF4F00B00000
(1619540157.186540) can0 422#450007FF3F5D007D
(1619540157.192457) can0 002#0C80730000000001
(1619540157.192752) can0 410#12002913000000C0
(1619540157.192948) can0 411#05FF7F000000C004
(1619540157.193330) can0 412#00640164010EE8B8
(1619540157.193453) can0 601#08D200D300000000
(1619540157.196125) can0 420#0088414000400080
(1619540157.196255) can0 421#FF00FF5000B00000
(1619540157.196449) can0 422#450007FF7F5D007D
(1619540157.197708) can0 075#000000000003078D
(1619540157.197928) can0 513#0000000000000000
(1619540157.198202) can0 512#F0F000008027FF3F
(1619540157.198432) can0 070#F37F00FF008007D1
(1619540157.198927) can0 511#0000000000000000
(1619540157.198936) can0 501#000000FF00280000
(1619540157.199174) can0 576#000000000E221770
(1619540157.202502) can0 002#0C80040000000001
(1619540157.202851) can0 410#12002913000000C0
(1619540157.202959) can0 411#05FF7F000000C004
(1619540157.203649) can0 412#00640164010EE8B8
(1619540157.203659) can0 601#08D200D300000000
(1619540157.205715) can0 514#0000FE00083B0900
(1619540157.205772) can0 620#2000070000000000
(1619540157.206037) can0 420#0088414000400080
(1619540157.206263) can0 421#FF00FF5100B00000
(1619540157.206822) can0 422#450007FFBF5D007D
(1619540157.212466) can0 002#0C80150000000001
(1619540157.212686) can0 410#12002913000000C0
(1619540157.212971) can0 411#05FF7F000000C004
(1619540157.213158) can0 412#00640164010EE8B8
(1619540157.213712) can0 600#00000060100C005D
(1619540157.213721) can0 601#08D200D300000000
(1619540157.216108) can0 420#0088414000400080
(1619540157.216206) can0 421#FF00FF5200B00000
(1619540157.216477) can0 422#450007FF3F5D007D
(1619540157.217921) can0 075#0000000000030836
(1619540157.217930) can0 513#0000000000000000
(1619540157.218171) can0 512#F0F000008028FF7F
(1619540157.218668) can0 070#F17F00FFF57F0890
(1619540157.218679) can0 511#0000000000000000
(1619540157.218904) can0 501#000000FF00290000
(1619540157.219145) can0 576#0000000010281818
(1619540157.222446) can0 002#0C80260000000001
(1619540157.222714) can0 410#12002913000000C0
(1619540157.222920) can0 411#05FF7F000000C004
(1619540157.223185) can0 412#00640164010EE8B8
(1619540157.223395) can0 601#08D200D300000000
(1619540157.225628) can0 514#0000FE00083B0B00
(1619540157.225746) can0 620#2000070000000000
(1619540157.226079) can0 420#0088414000400080
(1619540157.226232) can0 421#FF00FF5300B00000
(1619540157.226498) can0 422#450007FF7F5D007D
(1619540157.232628) can0 002#0C80370000000001
(1619540157.232708) can0 410#12002913000000C0
(1619540157.232958) can0 411#05FF7F000000C004
(1619540157.233161) can0 412#00640164010EE8B8
(1619540157.233391) can0 601#08D200D300000000
(1619540157.235995) can0 420#0088414000400080
(1619540157.236225) can0 421#FF00FF5400B00000
(1619540157.236427) can0 422#450007FFBF5D007D
(1619540157.237892) can0 075#000000000003092B
(1619540157.237947) can0 513#0000000000000000
(1619540157.238197) can0 512#F0F000008029FF7F
(1619540157.238407) can0 070#F17F00FF008009CD
(1619540157.238687) can0 511#0000000000000000
(1619540157.238900) can0 501#000000FF002A0000
(1619540157.239130) can0 576#000000001233193C
(1619540157.242502) can0 002#0C80C80000000001
(1619540157.242703) can0 410#12002913000000C0
(1619540157.242970) can0 411#05FF7F000000C004
(1619540157.243214) can0 412#00640164010EE8B8
(1619540157.243455) can0 601#08D200D300000000
(1619540157.245691) can0 514#0000FE00083B0D00
(1619540157.245751) can0 620#2000070000000000
(1619540157.246107) can0 420#0088414000400080
(1619540157.246233) can0 421#FF00FF5500B00000
(1619540157.246500) can0 422#450007FF3F5D007D
(1619540157.252505) can0 002#0C80D90000000001
(1619540157.252834) can0 410#12002913000000C0
(1619540157.252959) can0 411#05FFBF000000C004
(1619540157.253565) can0 412#00640164010EE8B8
(1619540157.253573) can0 601#08D200D300000000
(1619540157.256123) can0 420#0088414000400080
(1619540157.256180) can0 421#FF00FF5600B00000
(1619540157.256392) can0 422#450007FF7F5D007D
(1619540157.257907) can0 075#0000000000030A0C
(1619540157.257961) can0 513#0000000000000000
(1619540157.258218) can0 512#F0F00000802AFF7F
(1619540157.258438) can0 070#F67F00FF16800A79
(1619540157.258962) can0 511#0000000000000000
(1619540157.258971) can0 501#000000FF002B0000
(1619540157.259149) can0 576#0000000014201A7E
(1619540157.262462) can0 002#0C80EA0000000001
(1619540157.262794) can0 410#12002913000000C0
(1619540157.262915) can0 411#05FFBF000000C004
(1619540157.263196) can0 412#00640164010EE8B8
(1619540157.263402) can0 600#00000060110C005D
(1619540157.263877) can0 601#08D200D300000000
(1619540157.265692) can0 514#0000FE00083B0F00
(1619540157.265748) can0 620#2000070000000000
(1619540157.265971) can0 420#0088414000400080
(1619540157.266248) can0 421#FF00FF5700B00000
(1619540157.266470) can0 422#450007FFBF5D007D
(1619540157.272443) can0 002#0C80FB0000000001
(1619540157.272700) can0 410#12002913000000C0
(1619540157.273248) can0 411#05FFBF000000C004
(1619540157.273258) can0 412#00640164010EE8B8
(1619540157.273380) can0 601#08D200D300000000
(1619540157.276192) can0 420#0088414000400080
(1619540157.276202) can0 421#FF00FF5800B00000
(1619540157.276435) can0 422#450007FF3F5D007D
(1619540157.277924) can0 075#0000000000030B11
(1619540157.277983) can0 513#0000000000000000
(1619540157.278261) can0 512#F0F00000802BFF7F
(1619540157.278478) can0 070#F97F00FF0B800BA5
(1619540157.278701) can0 511#0000000000000000
(1619540157.278955) can0 501#000000FF002C0000
(1619540157.279192) can0 576#0000000016201B60
(1619540157.282642) can0 002#0C808C0000000001
(1619540157.282686) can0 410#12002913000000C0
(1619540157.282927) can0 411#05FFBF000000C004
(1619540157.283195) can0 412#00640164010EE8B8
(1619540157.283413) can0 601#08D200D300000000
(1619540157.285483) can0 514#0000FE00083B0100
(1619540157.285713) can0 620#2000070000000000
(1619540157.285965) can0 420#0088414000400080
(1619540157.286198) can0 421#FF00FF5900B00000
(1619540157.286649) can0 422#450007FF7F5D007D
(1619540157.292626) can0 002#0C809D0000000001
(1619540157.292672) can0 410#12002913000000C0
(1619540157.293208) can0 411#05FFBF000000C004
(1619540157.293218) can0 412#00640164010EE8B8
(1619540157.293429) can0 601#08D200D300000000
(1619540157.295904) can0 420#0088414000400080
(1619540157.296153) can0 421#FF00FF5A00B00000
(1619540157.296410) can0 422#450007FFBF5D007D
(1619540157.297884) can0 075#0000000000030C42
(1619540157.297949) can0 513#0000000000000000
(1619540157.298158) can0 512#F0F00000802CFF7F
(1619540157.298401) can0 070#F77F00FF00800C77
(1619540157.298643) can0 511#0000000000000000
(1619540157.298898) can0 501#000000FF002D0000
(1619540157.299140) can0 576#0000000018241C17
(1619540157.302503) can0 002#0C80AE0000000001
(1619540157.302729) can0 410#12002913000000C0
(1619540157.302982) can0 411#05FFBF000000C004
(1619540157.303209) can0 412#00640164010EE8B8
(1619540157.303462) can0 601#08D200D300000000
(1619540157.305966) can0 514#0000FE00083B0300
(1619540157.305974) can0 620#2000070000000000
(1619540157.305976) can0 420#0088414000400080
(1619540157.306175) can0 421#FF00FF5B00B00000
(1619540157.306631) can0 422#450007FF3F5D007D
(1619540157.312471) can0 002#0C80BF0000000001
(1619540157.312707) can0 410#12002913000000C0
(1619540157.312953) can0 411#05FFBF000000C004
(1619540157.313152) can0 412#00640164010EE8B8
(1619540157.313722) can0 600#00000060120C005D
(1619540157.313731) can0 601#08D200D300000000
(1619540157.315982) can0 420#0088414000400080
(1619540157.316161) can0 421#FF00FF5C00B00000
(1619540157.316766) can0 422#450007FF7F5D007D
(1619540157.317883) can0 075#0000000000030D5F
(1619540157.317891) can0 513#0000000000000000
(1619540157.318101) can0 512#F0F00000802DFF7F
(1619540157.318705) can0 070#F77F00FF06800D6F
(1619540157.318715) can0 511#0000000000000000
(1619540157.318867) can0 501#000000FF002E0000
(1619540157.319130) can0 576#000000001A001D51
(1619540157.322752) can0 002#0C80400000000001
(1619540157.322762) can0 410#12002913000000C0
(1619540157.322958) can0 411#05FFBF000000C004
(1619540157.323432) can0 412#00640164010EE8B8
(1619540157.323441) can0 601#08D200D300000000
(1619540157.325713) can0 514#0000FE00C83A0500
(1619540157.325722) can0 620#2000070000000000
(1619540157.325924) can0 420#0088414000400080
(1619540157.326204) can0 421#FF00FF5D00B00000
(1619540157.326401) can0 422#450007FFBF5D007D
(1619540157.332460) can0 002#0C80510000000001
(1619540157.332682) can0 410#12002913000000C0
(1619540157.333135) can0 411#05FFBF000000C004
(1619540157.333145) can0 412#00640164010EE8B8
(1619540157.333423) can0 601#08D200D300000000
(1619540157.335928) can0 420#0088414000400080
(1619540157.336160) can0 421#FF00FF5E00B00000
(1619540157.336724) can0 422#450007FF3F5D007D
(1619540157.337822) can0 075#0000000000040E81
(1619540157.337894) can0 513#0000000000000000
(1619540157.338147) can0 512#F0F00000802EFF7F
(1619540157.338345) can0 070#FE7F00FF04800EC4
(1619540157.338610) can0 511#0000000000000000
(1619540157.339128) can0 501#000000FF002F0000
(1619540157.339137) can0 576#0000000002201E17
(1619540157.342662) can0 002#0C80620000000001
(1619540157.342679) can0 410#12002913000000C0
(1619540157.343228) can0 411#05FFBF000000C004
(1619540157.343238) can0 412#00640164010EE8B8
(1619540157.343424) can0 601#08D200D300000000
(1619540157.345536) can0 514#0000FE00C83A0700
(1619540157.345672) can0 620#2000070000000000
(1619540157.345911) can0 420#0088414000400080
(1619540157.346171) can0 421#FF00FF5F00B00000
(1619540157.346446) can0 422#450007FF7F5D007D
(1619540157.352508) can0 002#0C80730000000001
(1619540157.352732) can0 410#12002913000000C0
(1619540157.353197) can0 411#05FFBF000000C004
(1619540157.353206) can0 412#00640164010EE8B8
(1619540157.353463) can0 601#08D200D300000000
(1619540157.355972) can0 420#0088414000400080
(1619540157.356113) can0 421#FF00FF6000B00000
(1619540157.356402) can0 422#450007FFBF5D007D
(1619540157.357705) can0 075#0000000000040F9C
(1619540157.357909) can0 513#0000000000000000
(1619540157.358440) can0 512#F0F00000802FFF7F
(1619540157.358449) can0 070#F87F00FF04800F0A
(1619540157.358673) can0 511#0000000000000000
(1619540157.358882) can0 501#000000FF00300000
(1619540157.359118) can0 576#0000000004201F0F
(1619540157.362469) can0 002#0C80040000000001
(1619540157.362707) can0 410#12002913000000C0
(1619540157.362946) can0 411#05FFBF000000C004
(1619540157.363147) can0 412#00640164010EE8B8
(1619540157.363429) can0 600#00000060130C005D
(1619540157.363630) can0 601#08D200D300000000
(1619540157.365457) can0 514#0000FE00083B0900
(1619540157.365651) can0 620#2000070000000000
(1619540157.365894) can0 420#0088414000400080
(1619540157.366151) can0 421#FF00FF6100B00000
(1619540157.366428) can0 422#450007FF3F5D007D
(1619540157.372462) can0 002#0C80150000000001
(1619540157.372728) can0 410#12002913000000C0
(1619540157.373198) can0 411#05FFFF000000C004
(1619540157.373207) can0 412#00640164010EE8B8
(1619540157.373363) can0 601#08D200D300000000
(1619540157.376134) can0 420#0088414000400080
(1619540157.376144) can0 421#FF00FF6200B00000
(1619540157.376390) can0 422#450007FF7F5D007D
(1619540157.377695) can0 075#0000000000040027
(1619540157.377935) can0 513#0000000000000000
(1619540157.378178) can0 512#F0F000008030FF7F
(1619540157.378414) can0 070#E67F00FF16800012
(1619540157.378662) can0 511#0000000000000000
(1619540157.378945) can0 501#000000FF00310000
(1619540157.379200) can0 576#00000000062010B7
(1619540157.382644) can0 002#0C80260000000001
(1619540157.382655) can0 410#12002913000000C0
(1619540157.382957) can0 411#05FFFF000000C004
(1619540157.383179) can0 412#00640164010EE8B8
(1619540157.383373) can0 601#08D200D300000000
(1619540157.385420) can0 514#0000FE00083B0B00
(1619540157.385660) can0 620#2000070000000000
(1619540157.385934) can0 420#0088414000400080
(1619540157.386214) can0 421#FF00FF6300B00000
(1619540157.386373) can0 422#450007FFBF5D007D
(1619540157.392692) can0 002#0C80370000000001
(1619540157.392701) can0 410#12002913000000C0
(1619540157.392924) can0 411#05FFFF000000C004
(1619540157.393399) can0 412#00640164010EE8B8
(1619540157.393409) can0 601#08D200D300000000
(1619540157.395925) can0 420#0088414000400080
(1619540157.396132) can0 421#FF00FF6400B00000
(1619540157.396365) can0 422#450007FF3F5D007D
(1619540157.397901) can0 075#000000000004013A
(1619540157.397966) can0 513#0000000000000000
(1619540157.398183) can0 512#F0F000008031FF7F
(1619540157.398870) can0 070#E87F00FF1F80018D
(1619540157.398878) can0 511#0000000000000000
(1619540157.398942) can0 501#000000FF00320000
(1619540157.399148) can0 576#00000000082011A3
(1619540157.402511) can0 002#0C80C80000000001
(1619540157.402735) can0 410#12002913000000C0
(1619540157.403209) can0 411#05FFFF000000C004
(1619540157.403219) can0 412#00640164010EE8B8
(1619540157.403420) can0 601#08D200D300000000
(1619540157.405599) can0 514#0000FE00C83A0D00
(1619540157.405663) can0 620#2000070000000000
(1619540157.405876) can0 420#0088414000400080
(1619540157.406176) can0 421#FF00FF6500B00000
(1619540157.406381) can0 422#450007FF7F5D007D
(1619540157.412456) can0 002#0C80D90000000001
(1619540157.412653) can0 410#12002913000000C0
(1619540157.413123) can0 411#05FFFF000000C004
(1619540157.413132) can0 412#00640164010EE8B8
(1619540157.413406) can0 600#00000060140C005D
(1619540157.413609) can0 601#08D200D300000000
(1619540157.416089) can0 420#0088414000400080
(1619540157.416098) can0 421#FF00FF6600B00000
(1619540157.416376) can0 422#450007FFBF5D007D
(1619540157.417886) can0 075#000000000004021D
(1619540157.417943) can0 513#0000000000000000
(1619540157.418515) can0 512#F0F000008032FFBF
(1619540157.418524) can0 070#EF7F00FF05800233
(1619540157.418668) can0 511#0000000000000000
(1619540157.418923) can0 501#000000FF00330000
(1619540157.419154) can0 576#000000000A0012F2
(1619540157.422411) can0 002#0C80EA0000000001
(1619540157.422647) can0 410#12002913000000C0
(1619540157.423099) can0 411#05FFFF000000C004
(1619540157.423117) can0 412#00640164010EE8B8
(1619540157.423396) can0 601#08D200D300000000
(1619540157.425645) can0 514#0000FE00C83A0F00
(1619540157.425654) can0 620#2000070000000000
(1619540157.425871) can0 420#0088414000400080
(1619540157.426161) can0 421#FF00FF6700B00000
(1619540157.426347) can0 422#450007FF3F5D007D
(1619540157.432450) can0 002#0C80FB0000000001
(1619540157.432645) can0 410#12002913000000C0
(1619540157.432889) can0 411#05FFFF000000C004
(1619540157.433119) can0 412#00640164010EE8B8
(1619540157.433355) can0 601#08D200D300000000
(1619540157.435887) can0 420#0088414000400080
(1619540157.436059) can0 421#FF00FF6800B00000
(1619540157.436290) can0 422#450007FF7F5D007D
(1619540157.437681) can0 075#000000000005034C
(1619540157.437926) can0 513#0000000000000000
(1619540157.438167) can0 512#F0F000008033FFBF
(1619540157.438409) can0 070#F07F00FFF07F038B
(1619540157.438663) can0 511#0000000000000000
(1619540157.438911) can0 501#000000FF00340000
(1619540157.439143) can0 576#00000000022113DA
(1619540157.442470) can0 002#0C808C0000000001
(1619540157.442716) can0 410#12002913000000C0
(1619540157.442905) can0 411#05FFFF000000C004
(1619540157.443444) can0 412#00640164010EE8B8
(1619540157.443453) can0 601#08D200D300000000
(1619540157.445426) can0 514#0000FE00083B0100
(1619540157.445616) can0 620#2000070000000000
(1619540157.445865) can0 420#0088414000400080
(1619540157.446104) can0 421#FF00FF6900B00000
(1619540157.446337) can0 422#450007FFBF5D007D
(1619540157.452488) can0 002#0C809D0000000001
(1619540157.452685) can0 410#12002913000000C0
(1619540157.452919) can0 411#05FFFF000000C004
(1619540157.453149) can0 412#00640164010EE8B8
(1619540157.453397) can0 601#08D200D300000000
(1619540157.455805) can0 420#0088414000400080
(1619540157.456094) can0 421#FF00FF6A00B00000
(1619540157.456337) can0 422#450007FF3F5D007D
(1619540157.457750) can0 075#000000000005041F
(1619540157.457983) can0 513#0000000000000000
(1619540157.458225) can0 512#F0F000008034FFBF
(1619540157.458462) can0 070#EF7F00FFE87F0429
(1619540157.458709) can0 511#0000000000000000
(1619540157.458959) can0 501#000000FF00350000
(1619540157.459195) can0 576#00000000042514A1
(1619540157.462512) can0 002#0C80AE0000000001
(1619540157.462687) can0 410#12002913000000C0
(1619540157.462936) can0 411#05FFFF000000C004
(1619540157.463167) can0 412#00640164010EE8B8
(1619540157.463409) can0 600#00000060150C005D
(1619540157.463653) can0 601#08D200D300000000
(1619540157.465715) can0 514#0000FE00083B0300
(1619540157.465724) can0 620#2000070000000000
(1619540157.465870) can0 420#0088414000400080
(1619540157.466085) can0 421#FF00FF6B00B00000
(1619540157.466314) can0 422#450007FF7F5D007D
(1619540157.472416) can0 002#0C80BF0000000001
(1619540157.472640) can0 410#12002913000000C0
(1619540157.472924) can0 411#05FFFF000000C004
(1619540157.473165) can0 412#00640164010EE8B8
(1619540157.473398) can0 601#08D200D300000000
(1619540157.475841) can0 420#0088414000400080
(1619540157.476034) can0 421#FF00FF6C00B00000
(1619540157.476327) can0 422#450007FFBF5D007D
(1619540157.477638) can0 075#0000000000050502
(1619540157.477866) can0 513#0000000000000000
(1619540157.478085) can0 512#F0F000008035FFBF
(1619540157.478320) can0 070#EF7F00FFED7F05BD
(1619540157.478567) can0 511#0000000000000000
(1619540157.478866) can0 501#000000FF00360000
(1619540157.479055) can0 576#0000000006271527
(1619540157.482433) can0 002#0C80400000000001
(1619540157.482805) can0 410#12002913000000C0
(1619540157.482940) can0 411#05FFFF000000C004
(1619540157.483158) can0 412#00640164010EE8B8
(1619540157.483370) can0 601#08D200D300000000
(1619540157.485575) can0 514#0000FE00083B0500
(1619540157.485594) can0 620#2000070000000000
(1619540157.485873) can0 420#0088414000400080
(1619540157.486117) can0 421#FF00FF6D00B00000
(1619540157.486356) can0 422#450007FF3F5D007D
(1619540157.492454) can0 002#0C80510000000001
(1619540157.492728) can0 410#12002913000000C0
(1619540157.492911) can0 411#05FFFF000000C004
(1619540157.493166) can0 412#00640164010EE8B8
(1619540157.493411) can0 601#08D200D300000000
(1619540157.495829) can0 420#0088414000400080
(1619540157.496067) can0 421#FF00FF6E00B00000
(1619540157.496271) can0 422#450007FF7F5D007D
(1619540157.497658) can0 075#0000000000050625
(1619540157.497913) can0 513#0000000000000000
(1619540157.498150) can0 512#F0F000008036FFBF
(1619540157.498390) can0 070#ED7F00FFEB7F0625
(1619540157.498632) can0 511#0000000000000000
(1619540157.498867) can0 501#000000FF00370000
(1619540157.499101) can0 576#00000000082016F0
(1619540157.502537) can0 002#0C80620000000001
(1619540157.502656) can0 410#12002913000000C0
(1619540157.502948) can0 411#05FF3F000000C004
(1619540157.503178) can0 412#00640164010EE8B8
(1619540157.503413) can0 601#08D200D300000000
(1619540157.505343) can0 514#0000FE00083B0700
(1619540157.505580) can0 620#2000070000000000
(1619540157.505865) can0 420#0088414000400080
(1619540157.506102) can0 421#FF00FF6F00B00000
(1619540157.506344) can0 422#450007FFBF5D007D
(1619540157.512499) can0 002#0C80730000000001
(1619540157.512716) can0 410#12002913000000C0
(1619540157.512979) can0 411#05FF3F000000C004
(1619540157.513186) can0 412#00640164010EE8B8
(1619540157.513469) can0 600#00000060160C005D
(1619540157.513711) can0 601#08D200D300000000
(1619540157.516057) can0 420#0088414000400080
(1619540157.516066) can0 421#FF00FF7000B00000
(1619540157.516285) can0 422#450007FF3F5D007D
(1619540157.517670) can0 075#0000000000050738
(1619540157.517886) can0 513#0000000000000000
(1619540157.518114) can0 512#F0F000008037FFBF
(1619540157.518561) can0 070#EF7F00FFF07F071A
(1619540157.518623) can0 511#0000000000000000
(1619540157.518868) can0 501#000000FF00380000
(1619540157.519126) can0 576#000000000A00179B
(1619540157.522445) can0 002#0C80040000000001
(1619540157.522755) can0 410#12002913000000C0
(1619540157.522914) can0 411#05FF3F000000C004
(1619540157.523134) can0 412#00640164010EE8B8
(1619540157.523401) can0 601#08D200D300000000
(1619540157.525524) can0 514#0000FE00083B0900
(1619540157.525596) can0 620#2000070000000000
(1619540157.525859) can0 420#0088414000400080
(1619540157.526051) can0 421#FF00FF7100B00000
(1619540157.526331) can0 422#450007FF7F5D007D
(1619540157.532593) can0 002#0C80150000000001
(1619540157.532666) can0 410#12002913000000C0
(1619540157.532890) can0 411#05FF3F000000C004
(1619540157.533156) can0 412#00640164010EE8B8
(1619540157.533402) can0 601#08D200D300000000
(1619540157.535951) can0 420#0088414000400080
(1619540157.536067) can0 421#FF00FF7200B00000
(1619540157.536302) can0 422#450007FFBF5D007D
(1619540157.537967) can0 075#0000000000060857
(1619540157.537977) can0 513#0000000000000000
(1619540157.538165) can0 512#F0F000008038FFBF
(1619540157.538640) can0 070#E77F00FFF97F08F0
(1619540157.538648) can0 511#0000000000000000
(1619540157.538867) can0 501#000000FF00390000
(1619540157.539078) can0 576#0000000002201859
(1619540157.542452) can0 002#0C80260000000001
(1619540157.542708) can0 410#12002913000000C0
(1619540157.542944) can0 411#05FF3F000000C004
(1619540157.543176) can0 412#00640164010EE8B8
(1619540157.543411) can0 601#08D200D300000000
(1619540157.545346) can0 514#0000FE00083B0B00
(1619540157.545558) can0 620#2000070000000000
(1619540157.545795) can0 420#0088414000400080
(1619540157.546055) can0 421#FF00FF7300B00000
(1619540157.546313) can0 422#450007FF3F5D007D
(1619540157.552461) can0 002#0C80370000000001
(1619540157.552802) can0 410#12002913000000C0
(1619540157.552903) can0 411#05FF3F000000C004
(1619540157.553138) can0 412#00640164010EE8B8
(1619540157.553380) can0 601#08D200D300000000
(1619540157.553622) can0 075#000000000006094A
(1619540157.553872) can0 513#0000000000000000
(1619540157.554108) can0 512#F0F000008039FFBF
(1619540157.554345) can0 070#EB7F00FFF87F09D9
(1619540157.554603) can0 511#0000000000000000
(1619540157.554866) can0 501#000000FF003A0000
(1619540157.555091) can0 576#0000000004291957
(1619540157.555762) can0 420#0088414000400080
(1619540157.556023) can0 421#FF00FF7400B00000
(1619540157.556283) can0 422#450007FF7F5D007D
(1619540157.562446) can0 002#0C80C80000000001
(1619540157.562676) can0 410#12002913000000C0
(1619540157.562924) can0 411#05FF3F000000C004
(1619540157.563153) can0 412#00640164010EE8B8
(1619540157.563391) can0 600#00000060170C005D
(1619540157.563681) can0 601#08D200D300000000
(1619540157.565527) can0 514#0000FE00C83A0D00
(1619540157.565545) can0 620#2000070000000000
(1619540157.565783) can0 420#0088414000400080
(1619540157.566021) can0 421#FF00FF7500B00000
(1619540157.566262) can0 422#450007FFBF5D007D
(1619540157.572443) can0 002#0C80D90000000001
(1619540157.572649) can0 410#12002913000000C0
(1619540157.572923) can0 411#05FF3F000000C004
(1619540157.573153) can0 412#00640164010EE8B8
(1619540157.573355) can0 601#08D200D300000000
(1619540157.573615) can0 075#0000000000060A6D
(1619540157.573871) can0 513#0000000000000000
(1619540157.574101) can0 512#F0F00000803A5780
(1619540157.574343) can0 070#FA7F00FF0F800A59
(1619540157.574598) can0 511#0000000000000000
(1619540157.574865) can0 501#000000FF003B0000
(1619540157.575077) can0 576#0000000006321A49
(1619540157.575764) can0 420#0088414000400080
(1619540157.576004) can0 421#FF00FF7600B00000
(1619540157.576245) can0 422#450007FF3F5D007D
(1619540157.582419) can0 002#0C80EA0000000001
(1619540157.582643) can0 410#12002913000000C0
(1619540157.582885) can0 411#05FF3F000000C004
(1619540157.583114) can0 412#00640164010EE8B8
(1619540157.583350) can0 601#08D200D300000000
(1619540157.585287) can0 514#0000FE00C83A0F00
(1619540157.585534) can0 620#2000070000000000
(1619540157.585776) can0 420#0088414000400080
(1619540157.586017) can0 421#FF00FF7700B00000
(1619540157.586257) can0 422#450007FF7F5D007D
(1619540157.592404) can0 002#0C80FB0000000001
(1619540157.592634) can0 410#12002913000000C0
(1619540157.592917) can0 411#05FF3F000000C004
(1619540157.593148) can0 412#00640164010EE8B8
(1619540157.593392) can0 601#08D200D300000000
(1619540157.593634) can0 075#0000000000060B70
(1619540157.593866) can0 513#0000000000000000
(1619540157.594079) can0 512#F0F00000803B5780
(1619540157.594320) can0 070#F57F00FF07800B14
(1619540157.594568) can0 511#0000000000000000
(1619540157.594866) can0 501#000000FF003C0000
(1619540157.595063) can0 576#0000000008211B3D
(1619540157.595758) can0 420#0088414000400080
(1619540157.595989) can0 421#FF00FF7800B00000
(1619540157.596232) can0 422#450007FFBF5D007D
(1619540157.602658) can0 002#0C808C0000000001
(1619540157.602668) can0 410#12002913000000C0
(1619540157.602894) can0 411#05FF3F000000C004
(1619540157.603122) can0 412#00640164010EE8B8
(1619540157.603357) can0 601#08D200D300000000
(1619540157.605460) can0 514#0000FE00083B0100
(1619540157.605516) can0 620#2000070000000000
(1619540157.605759) can0 420#0088414000400080
(1619540157.606026) can0 421#FF00FF7900B00000
(1619540157.606239) can0 422#450007FF3F5D007D
(1619540157.612499) can0 002#0C809D0000000001
(1619540157.612778) can0 410#12002913000000C0
(1619540157.612931) can0 411#05FF3F000000C004
(1619540157.613153) can0 412#00640164010EE8B8
(1619540157.613464) can0 600#00000060180C005D
(1619540157.613696) can0 075#0000000000060C23
(1619540157.613946) can0 513#0000000000000000
(1619540157.614183) can0 512#F0F00000803C4500
(1619540157.614375) can0 070#F37F00FFFC7F0CDD
(1619540157.614617) can0 511#0000000000000000
(1619540157.614872) can0 501#000000FF003D0000
(1619540157.615107) can0 576#000000000A211C6D
(1619540157.615350) can0 601#08D200D300000000
(1619540157.615727) can0 420#0088414000400080
(1619540157.615970) can0 421#FF00FF7A00B00000
(1619540157.616209) can0 422#450007FF7F5D007D
(1619540157.622429) can0 002#0C80AE0000000001
(1619540157.622641) can0 410#12002913000000C0
(1619540157.623440) can0 411#05FF3F000000C004
(1619540157.623449) can0 412#00640164010EE8B8
(1619540157.623452) can0 601#08D200D300000000
(1619540157.625268) can0 514#0000FE00083B0300
(1619540157.625506) can0 620#2000070000000000
(1619540157.625752) can0 420#0088414000400080
(1619540157.625986) can0 421#FF00FF7B00B00000
(1619540157.626264) can0 422#450007FFBF5D007D
(1619540157.632660) can0 002#0C80BF0000000001
(1619540157.632670) can0 410#12002913000000C0
(1619540157.632880) can0 411#05FF7F000000C004
(1619540157.633110) can0 412#00640164010EE8B8
(1619540157.633352) can0 601#08D200D300000000
(1619540157.633600) can0 075#0000000000060D3E
(1619540157.633866) can0 513#0000000000000000
(1619540157.634138) can0 512#F0F00000803D4500
(1619540157.634373) can0 070#F37F00FF08800D0F
(1619540157.634621) can0 511#0000000000000000
(1619540157.634912) can0 501#000000FF003E0000
(1619540157.635060) can0 576#000000000C321D15
(1619540157.635783) can0 420#0088414000400080
(1619540157.635975) can0 421#FF00FF7C00B00000
(1619540157.636215) can0 422#450007FF3F5D007D
(1619540157.642422) can0 002#0C80400000000001
(1619540157.642634) can0 410#12002913000000C0
(1619540157.642885) can0 411#05FF7F000000C004
(1619540157.643116) can0 412#00640164010EE8B8
(1619540157.643351) can0 601#08D200D300000000
(1619540157.645259) can0 514#0000FE00C83A0500
(1619540157.645493) can0 620#2000070000000000
(1619540157.645736) can0 420#0088414000400080
(1619540157.645982) can0 421#FF00FF7D00B00000
(1619540157.646220) can0 422#450007FF7F5D007D
(1619540157.652660) can0 002#0C80510000000001
(1619540157.652677) can0 410#12002913000000C0
(1619540157.652954) can0 411#05FF7F000000C004
(1619540157.653127) can0 412#00640164010EE8B8
(1619540157.653364) can0 601#08D200D300000000
(1619540157.653612) can0 075#0000000000060E19
(1619540157.653867) can0 513#0000000000000000
(1619540157.654091) can0 512#F0F00000803E4500
(1619540157.654334) can0 070#F97F00FF0B800ECC
(1619540157.654587) can0 511#0000000000000000
(1619540157.654914) can0 501#000000FF003F0000
(1619540157.655111) can0 576#000000000E211E51
(1619540157.655915) can0 420#0088414000400080
(1619540157.656003) can0 421#FF00FF7E00B00000
(1619540157.656768) can0 422#450007FFBF5D007D
(1619540157.662488) can0 002#0C80620000000001
(1619540157.662668) can0 410#12002913000000C0
(1619540157.662926) can0 411#05FF7F000000C004
(1619540157.663190) can0 412#00640164010EE8B8
(1619540157.663384) can0 600#00000060190C005D
(1619540157.663631) can0 601#08D200D300000000
(1619540157.665427) can0 514#0000FE00C83A0700
(1619540157.665490) can0 620#2000070000000000
(1619540157.665730) can0 420#0088414000400080
(1619540157.665969) can0 421#FF00FF7F00B00000
(1619540157.666212) can0 422#450007FF3F5D007D
(1619540157.672402) can0 002#0C80730000000001
(1619540157.672650) can0 410#12002913000000C0
(1619540157.672869) can0 411#05FF7F000000C004
(1619540157.673098) can0 412#00640164010EE8B8
(1619540157.673340) can0 601#08D200D300000000
(1619540157.673760) can0 075#0000000000060F04
(1619540157.674014) can0 513#0000000000000000
(1619540157.674244) can0 512#F0F00000803F4500
(1619540157.674493) can0 070#FD7F00FFFC7F0FFB
(1619540157.674735) can0 511#0000000000000000
(1619540157.674984) can0 501#000000FF00400000
(1619540157.675220) can0 576#0000000010271FE8
(1619540157.675700) can0 420#0088414000400080
(1619540157.675952) can0 421#FF00FF8000B00000
(1619540157.676176) can0 422#450007FF7F5D007D
(1619540157.682642) can0 002#0C80040000000001
(1619540157.682652) can0 410#12002913000000C0
(1619540157.682875) can0 411#05FF7F000000C004
(1619540157.683098) can0 412#00640164010EE8B8
(1619540157.683334) can0 601#08D200D300000000
(1619540157.685274) can0 514#0000FE00483B0900
(1619540157.685473) can0 620#2000070000000000
(1619540157.685771) can0 420#0088414000400080
(1619540157.685982) can0 421#FF00FF8100B00000
(1619540157.686197) can0 422#450007FFBF5D007D
(1619540157.692405) can0 002#0C80150000000001
(1619540157.692631) can0 410#12002913000000C0
(1619540157.692926) can0 411#05FF7F000000C004
(1619540157.693146) can0 412#00640164010EE8B8
(1619540157.693395) can0 601#08D200D300000000
(1619540157.693936) can0 075#00000000000600BF
(1619540157.693993) can0 513#0000000000000000
(1619540157.694239) can0 512#F0F0000080404500
(1619540157.694489) can0 070#FB7F00FFFB7F0019
(1619540157.694731) can0 511#0000000000000000
(1619540157.694974) can0 501#000000FF00410000
(1619540157.695221) can0 576#00000000120010DC
(1619540157.695694) can0 420#0088414000400080
(1619540157.695952) can0 421#FF00FF8200B00000
(1619540157.696183) can0 422#450007FF3F5D007D
(1619540157.702507) can0 002#0C80260000000001
(1619540157.702656) can0 410#12002913000000C0
(1619540157.702882) can0 411#05FF7F000000C004
(1619540157.703104) can0 412#00640164010EE8B8
(1619540157.703351) can0 601#08D200D300000000
(1619540157.705523) can0 514#0000FE00483B0B00
(1619540157.705532) can0 620#2000070000000000
(1619540157.705701) can0 420#0088414000400080
(1619540157.705975) can0 421#FF00FF8300B00000
(1619540157.706182) can0 422#450007FF7F5D007D
(1619540157.712482) can0 002#0C80370000000001
(1619540157.712675) can0 410#12002913000000C0
(1619540157.712908) can0 411#05FF7F000000C004
(1619540157.713195) can0 412#00640164010EE8B8
(1619540157.713438) can0 600#000000601A0C005D
(1619540157.713643) can0 601#08D200D300000000
(1619540157.713931) can0 075#00000000000701EE
(1619540157.714129) can0 513#0000000000000000
(1619540157.714369) can0 070#F77F00FFFA7F0130
(1619540157.714605) can0 512#F0F0000080414500
(1619540157.714867) can0 511#0000000000000000
(1619540157.715099) can0 501#000000FF00420000
(1619540157.715339) can0 576#00000000022011AC
(1619540157.715699) can0 420#0088414000400080
(1619540157.715968) can0 421#FF00FF8400B00000
(1619540157.716180) can0 422#450007FFBF5D007D
(1619540157.722717) can0 002#0C80C80000000001
(1619540157.722726) can0 410#12002913000000C0
(1619540157.722988) can0 411#05FF7F000000C004
(1619540157.723211) can0 412#00640164010EE8B8
(1619540157.723401) can0 601#08D200D300000000
(1619540157.725197) can0 514#0000FE00C83A0D00
(1619540157.725446) can0 620#2000070000000000
(1619540157.725689) can0 420#0088414000400080
(1619540157.725947) can0 421#FF00FF8500B00000
(1619540157.726615) can0 422#450007FF3F5D007D
(1619540157.732637) can0 002#0C80D90000000001
(1619540157.732648) can0 410#12002913000000C0
(1619540157.732870) can0 411#05FF7F000000C004
(1619540157.733099) can0 412#00640164010EE8B8
(1619540157.733345) can0 601#08D200D300000000
(1619540157.733797) can0 075#00000000000702C9
(1619540157.734042) can0 513#0000000000000000
(1619540157.734283) can0 512#F0F0000080424500
(1619540157.734521) can0 070#FD7F00FFEA7F0267
(1619540157.734727) can0 511#0000000000000000
(1619540157.734974) can0 501#000000FF00430000
(1619540157.735216) can0 576#00000000040012FB
(1619540157.735671) can0 420#0088414000400080
(1619540157.735918) can0 421#FF00FF8600B00000
(1619540157.736156) can0 422#450007FF7F5D007D
(1619540157.742427) can0 002#0C80EA0000000001
(1619540157.742633) can0 410#12002913000000C0
(1619540157.743150) can0 411#05FF7F000000C004
(1619540157.743160) can0 412#00640164010EE8B8
(1619540157.743388) can0 601#08D200D300000000
(1619540157.745190) can0 514#0000FE00C83A0F00
(1619540157.745442) can0 620#2000070000000000
(1619540157.745678) can0 420#0088414000400080
(1619540157.745914) can0 421#FF00FF8700B00000
(1619540157.746178) can0 422#450007FFBF5D007D
(1619540157.752443) can0 002#0C80FB0000000001
(1619540157.752648) can0 410#12002913000000C0
(1619540157.752882) can0 411#05FF7F000000C004
(1619540157.753105) can0 412#00640164010EE8B8
(1619540157.753352) can0 601#08D200D300000000
(1619540157.753743) can0 075#0000000000080377
(1619540157.753992) can0 513#0000000000000000
(1619540157.754226) can0 512#F0F0000080434500
(1619540157.754520) can0 070#F67F00FFDF7F03EE
(1619540157.754725) can0 511#0000000000000000
(1619540157.754969) can0 501#000000FF00440000
(1619540157.755220) can0 576#00000000021213CF
(1619540157.755665) can0 420#0088414000400080
(1619540157.755909) can0 421#FF00FF8800B00000
(1619540157.756140) can0 422#450007FF3F5D007D
(1619540157.762435) can0 002#0C808C0000000001
(1619540157.762703) can0 410#12002913000000C0
(1619540157.762956) can0 411#05FFBF000000C004
(1619540157.763178) can0 412#00640164010EE8B8
(1619540157.763427) can0 600#000000601B0C005D
(1619540157.763619) can0 601#08D200D300000000
(1619540157.765183) can0 514#0000FE00083B0100
(1619540157.765423) can0 620#2000070000000000
(1619540157.765677) can0 420#0088414000400080
(1619540157.765914) can0 421#FF00FF8900B00000
(1619540157.766151) can0 422#450007FF7F5D007D
(1619540157.772585) can0 002#0C809D0000000001
(1619540157.772685) can0 410#12002913000000C0
(1619540157.772871) can0 411#05FFBF000000C004
(1619540157.773088) can0 412#00640164010EE8B8
(1619540157.773336) can0 601#08D200D300000000
(1619540157.773743) can0 075#0000000000080424
(1619540157.773993) can0 513#0000000000000000
(1619540157.774228) can0 512#F0F0000080444500
(1619540157.774470) can0 070#F17F00FFF37F0409
(1619540157.774723) can0 511#0000000000000000
(1619540157.774958) can0 501#000000FF00450000
(1619540157.775211) can0 576#00000000040F1416
(1619540157.775671) can0 420#0088414000400080
(1619540157.775903) can0 421#FF00FF8A00B00000
(1619540157.776140) can0 422#450007FFBF5D007D
(1619540157.782442) can0 002#0C80AE0000000001
(1619540157.782654) can0 410#12002913000000C0
(1619540157.782883) can0 411#05FFBF000000C004
(1619540157.783107) can0 412#00640164010EE8B8
(1619540157.783688) can0 601#08D200D300000000
(1619540157.785223) can0 514#0000FE00083B0300
(1619540157.785412) can0 620#2000070000000000
(1619540157.785664) can0 420#0088414000400080
(1619540157.785906) can0 421#FF00FF8B00B00000
(1619540157.786140) can0 422#450007FF3F5D007D
(1619540157.792444) can0 002#0C80BF0000000001
(1619540157.792631) can0 410#12002913000000C0
(1619540157.792926) can0 411#05FFBF000000C004
(1619540157.793154) can0 412#00640164010EE8B8
(1619540157.793346) can0 601#08D200D300000000
(1619540157.793742) can0 075#0000000000080539
(1619540157.793998) can0 513#0000000000000000
(1619540157.794228) can0 512#F0F0000080454500
(1619540157.794476) can0 070#F97F00FFFC7F0540
(1619540157.794718) can0 511#0000000000000000
(1619540157.794962) can0 501#000000FF00460000
(1619540157.795217) can0 576#0000000006021533
(1619540157.795643) can0 420#0088414000400080
(1619540157.795880) can0 421#FF00FF8C00B00000
(1619540157.796156) can0 422#450007FF7F5D007D
(1619540157.802432) can0 002#0C80400000000001
(1619540157.802709) can0 410#12002913000000C0
(1619540157.802884) can0 411#05FFBF000000C004
(1619540157.803106) can0 412#00640164010EE8B8
(1619540157.803341) can0 601#08D200D300000000
(1619540157.805159) can0 514#0000FE00083B0500
(1619540157.805406) can0 620#2000070000000000
(1619540157.805648) can0 420#0088414000400080
(1619540157.805897) can0 421#FF00FF8D00B00000
(1619540157.806135) can0 422#450007FFBF5D007D
(1619540157.812426) can0 002#0C80510000000001
(1619540157.812676) can0 410#12002913000000C0
(1619540157.812957) can0 411#05FFBF000000C004
(1619540157.813185) can0 412#00640164010EE8B8
(1619540157.813414) can0 600#000000601C0C005D
(1619540157.813618) can0 601#08D200D300000000
(1619540157.813868) can0 075#000000000008061E
(1619540157.814116) can0 513#0000000000000000
(1619540157.814358) can0 070#F97F00FF0180062B
(1619540157.814588) can0 512#F0F0000080464740
(1619540157.814867) can0 511#0000000000000000
(1619540157.815087) can0 501#000000FF00470000
(1619540157.815322) can0 576#00000000080516E4
(1619540157.815648) can0 420#0088414000400080
(1619540157.815886) can0 421#FF00FF8E00B00000
(1619540157.816129) can0 422#450007FF3F5D007D
(1619540157.822712) can0 002#0C80620000000001
(1619540157.822721) can0 410#12002913000000C0
(1619540157.822918) can0 411#05FFBF000000C004
(1619540157.823153) can0 412#00640164010EE8B8
(1619540157.823395) can0 601#08D200D300000000
(1619540157.825343) can0 514#0000FE00083B0700
(1619540157.825399) can0 620#2000070000000000
(1619540157.825638) can0 420#0088414000400080
(1619540157.825875) can0 421#FF00FF8F00B00000
(1619540157.826108) can0 422#450007FF7F5D007D
(1619540157.832390) can0 002#0C80730000000001
(1619540157.832629) can0 410#12002913000000C0
(1619540157.832919) can0 411#05FFBF000000C004
(1619540157.833140) can0 412#00640164010EE8B8
(1619540157.833382) can0 601#08D200D300000000
(1619540157.833947) can0 075#0000000000080703
(1619540157.834003) can0 513#0000000000000000
(1619540157.834225) can0 512#F0F0000080474740
(1619540157.834460) can0 070#FA7F00FFED7F070A
(1619540157.834714) can0 511#0000000000000000
(1619540157.834958) can0 501#000000FF00480000
(1619540157.835195) can0 576#000000000A1217B7
(1619540157.835642) can0 420#0088414000400080
(1619540157.835880) can0 421#FF00FF9000B00000
(1619540157.836119) can0 422#450007FFBF5D007D
(1619540157.842422) can0 002#0C80040000000001
(1619540157.842632) can0 410#12002913000000C0
(1619540157.842882) can0 411#05FFBF000000C004
(1619540157.843112) can0 412#00640164010EE8B8
(1619540157.843348) can0 601#08D200D300000000
(1619540157.845125) can0 514#00008D00083B0900
(1619540157.845410) can0 620#2000070000000000
(1619540157.845626) can0 420#0088414000400080
(1619540157.845869) can0 421#FF00FF9100B00000
(1619540157.846101) can0 422#450007FF3F5D007D
(1619540157.852691) can0 002#0C80150000000001
(1619540157.852701) can0 410#12002913000000C0
(1619540157.852877) can0 411#05FFBF000000C004
(1619540157.853106) can0 412#00640164010EE8B8
(1619540157.853343) can0 601#08D200D300000000
(1619540157.853796) can0 075#00000000000808B8
(1619540157.854041) can0 513#0000000000000000
(1619540157.854278) can0 512#F0F0000080484740
(1619540157.854460) can0 070#F97F00FFEB7F0853
(1619540157.854713) can0 511#0000000000000000
(1619540157.854957) can0 501#000000FF00490000
(1619540157.855193) can0 576#000000000C1418BC
(1619540157.855600) can0 420#0088414000400080
(1619540157.855871) can0 421#FF00FF9200B00000
(1619540157.856076) can0 422#450007FF7F5D007D
(1619540157.862447) can0 002#0C80260000000001
(1619540157.862674) can0 410#12002913000000C0
(1619540157.862931) can0 411#05FFBF000000C004
(1619540157.863112) can0 412#00640164010EE8B8
(1619540157.863360) can0 600#000000601D0C005D
(1619540157.863597) can0 601#08D200D300000000
(1619540157.865123) can0 514#00008D00083B0B00
(1619540157.865371) can0 620#2000070000000000
(1619540157.865613) can0 420#0088414000400080
(1619540157.865869) can0 421#FF00FF9300B00000
(1619540157.866136) can0 422#450007FFBF5D007D
(1619540157.872680) can0 410#12002913000000C0
(1619540157.872690) can0 002#0C80370000000001
(1619540157.872907) can0 411#05FFBF000000C004
(1619540157.873136) can0 412#00640164010EE8B8
(1619540157.873378) can0 601#08D200D300000000
(1619540157.873745) can0 075#00000000000809A5
(1619540157.874010) can0 513#0000000000000000
(1619540157.874280) can0 512#F0F0000080494740
(1619540157.874530) can0 070#F87F00FF02800941
(1619540157.874785) can0 511#0000000000000000
(1619540157.875027) can0 501#000000FF004A0000
(1619540157.875206) can0 576#000000000E33192E
(1619540157.875613) can0 420#0088414000400080
(1619540157.875869) can0 421#FF00FF9400B00000
(1619540157.876100) can0 422#450007FF3F5D007D
(1619540157.882389) can0 002#0C80C80000000001
(1619540157.882627) can0 410#12002913000000C0
(1619540157.882922) can0 411#05FFBF000000C004
(1619540157.883135) can0 412#00640164010EE8B8
(1619540157.883371) can0 601#08D200D300000000
(1619540157.885145) can0 514#00008D00883A0D00
(1619540157.885359) can0 620#2000070000000000
(1619540157.885595) can0 420#0088414000400080
(1619540157.885869) can0 421#FF00FF9500B00000
(1619540157.886106) can0 422#450007FF7F5D007D
(1619540157.892708) can0 002#0C80D90000000001
(1619540157.892717) can0 410#12002913000000C0
(1619540157.892883) can0 411#05FFFF000000C004
(1619540157.893112) can0 412#00640164010EE8B8
(1619540157.893348) can0 601#08D200D300000000
(1619540157.893745) can0 075#0000000000080A82
(1619540157.894001) can0 513#0000000000000000
(1619540157.894231) can0 512#F0F00000804A4740
(1619540157.894473) can0 070#F87F00FF15800AF4
(1619540157.894723) can0 511#0000000000000000
(1619540157.895058) can0 501#000000FF004B0000
(1619540157.895264) can0 576#0000000010021A95
(1619540157.895577) can0 420#0088414000400080
(1619540157.895869) can0 421#FF00FF9600B00000
(1619540157.896072) can0 422#450007FFBF5D007D
(1619540157.902410) can0 002#0C80EA0000000001
(1619540157.902633) can0 410#12002913000000C0
(1619540157.902885) can0 411#05FFFF000000C004
(1619540157.903121) can0 412#00640164010EE8B8
(1619540157.903400) can0 601#08D200D300000000
(1619540157.905158) can0 514#00008D00883A0F00
(1619540157.905348) can0 620#2000070000000000
(1619540157.905597) can0 420#0088414000400080
(1619540157.905870) can0 421#FF00FF9700B00000
(1619540157.906072) can0 422#450007FF3F5D007D
(1619540157.912449) can0 002#0C80FB0000000001
(1619540157.912646) can0 410#12002913000000C0
(1619540157.912924) can0 411#05FFFF000000C004
(1619540157.913113) can0 412#00640164010EE8B8
(1619540157.913361) can0 600#000000601E0C005D
(1619540157.913608) can0 601#08D200D300000000
(1619540157.913869) can0 075#0000000000080B9F
(1619540157.914098) can0 513#0000000000000000
(1619540157.914335) can0 070#F57F00FF19800B05
(1619540157.914572) can0 512#F0F00000804B4740
(1619540157.914869) can0 511#0000000000000000
(1619540157.915070) can0 501#000000FF004C0000
(1619540157.915306) can0 576#00000000120F1BB0
(1619540157.915585) can0 420#0088414000400080
(1619540157.915870) can0 421#FF00FF9800B00000
(1619540157.916120) can0 422#450007FF7F5D007D
(1619540157.922418) can0 410#12002913000000C0
(1619540157.922648) can0 002#0C808C0000000001
(1619540157.922895) can0 411#05FFFF000000C004
(1619540157.923119) can0 412#00640164010EE8B8
(1619540157.923360) can0 601#08D200D300000000
(1619540157.925305) can0 514#00008D00083B0100
(1619540157.925359) can0 620#2000070000000000
(1619540157.925586) can0 420#0088414000400080
(1619540157.925871) can0 421#FF00FF9900B00000
(1619540157.926062) can0 422#450007FFBF5D007D
(1619540157.932387) can0 002#0C809D0000000001
(1619540157.932636) can0 410#12002913000000C0
(1619540157.932919) can0 411#05FFFF000000C004
(1619540157.933148) can0 412#00640164010EE8B8
(1619540157.933382) can0 601#08D200D300000000
(1619540157.933745) can0 075#0000000000080CCC
(1619540157.934001) can0 513#0000000000000000
(1619540157.934237) can0 512#F0F00000804C4740
(1619540157.934473) can0 070#EA7F00FF05800CA1
(1619540157.934720) can0 511#0000000000000000
(1619540157.934970) can0 501#000000FF004D0000
(1619540157.935206) can0 576#0000000014131C25
(1619540157.935578) can0 420#0088414000400080
(1619540157.935869) can0 421#FF00FF9A00B00000
(1619540157.936077) can0 422#450007FF3F5D007D
(1619540157.942420) can0 002#0C80AE0000000001
(1619540157.942638) can0 410#12002913000000C0
(1619540157.942878) can0 411#05FFFF000000C004
(1619540157.943095) can0 412#00640164010EE8B8
(1619540157.943332) can0 601#08D200D300000000
(1619540157.945120) can0 514#00008D00083B0300
(1619540157.945368) can0 620#2000070000000000
(1619540157.945561) can0 420#0088414000400080
(1619540157.945798) can0 421#FF00FF9B00B00000
(1619540157.946060) can0 422#450007FF7F5D007D
(1619540157.952814) can0 002#0C80BF0000000001
(1619540157.952823) can0 410#12002913000000C0
(1619540157.952913) can0 411#05FFFF000000C004
(1619540157.953144) can0 412#00640164010EE8B8
(1619540157.953388) can0 601#08D200D300000000
(1619540157.953804) can0 075#0000000000080DD1
(1619540157.954045) can0 513#0000000000000000
(1619540157.954237) can0 512#F0F00000804D4740
(1619540157.954472) can0 070#E97F00FFFB7F0D9B
(1619540157.954717) can0 511#0000000000000000
(1619540157.954974) can0 501#000000FF004E0000
(1619540157.955224) can0 576#0000000016031D8F
(1619540157.955575) can0 420#0088414000400080
(1619540157.955867) can0 421#FF00FF9C00B00000
(1619540157.956055) can0 422#450007FFBF5D007D
(1619540157.962427) can0 410#12002913000000C0
(1619540157.962635) can0 002#0C80400000000001
(1619540157.962919) can0 411#05FFFF000000C004
(1619540157.963102) can0 412#00640164010EE8B8
(1619540157.963350) can0 600#000000601F0C005D
(1619540157.963591) can0 601#08D200D300000000
(1619540157.965059) can0 514#00008D00C83A0500
(1619540157.965315) can0 620#2000070000000000
(1619540157.965574) can0 420#0088414000400080
(1619540157.965871) can0 421#FF00FF9D00B00000
(1619540157.966060) can0 422#450007FF3F5D007D
(1619540157.972820) can0 410#12002913000000C0
(1619540157.972830) can0 002#0C80510000000001
(1619540157.973078) can0 411#05FFFF000000C004
(1619540157.973139) can0 412#00640164010EE8B8
(1619540157.973339) can0 601#08D200D300000000
(1619540157.973802) can0 075#0000000000080EF6
(1619540157.974061) can0 513#0000000000000000
(1619540157.974302) can0 512#F0F00000804E4740
(1619540157.974532) can0 070#ED7F00FFEB7F0ECD
(1619540157.974734) can0 511#0000000000000000
(1619540157.974978) can0 501#000000FF004F0000
(1619540157.975219) can0 576#0000000018081E2F
(1619540157.975556) can0 420#0088414000400080
(1619540157.975791) can0 421#FF00FF9E00B00000
(1619540157.976030) can0 422#450007FF7F5D007D
(1619540157.982389) can0 410#12002913000000C0
(1619540157.982631) can0 002#0C80620000000001
(1619540157.983102) can0 411#05FFFF000000C004
(1619540157.983111) can0 412#00640164010EE8B8
(1619540157.983396) can0 601#08D200D300000000
(1619540157.985068) can0 514#00008D00C83A0700
(1619540157.985297) can0 620#2000070000000000
(1619540157.985545) can0 420#0088414000400080
(1619540157.985780) can0 421#FF00FF9F00B00000
(1619540157.986019) can0 422#450007FFBF5D007D
(1619540157.992561) can0 410#12002913000000C0
(1619540157.992658) can0 002#0C80730000000001
(1619540157.992880) can0 411#05FFFF000000C004
(1619540157.993085) can0 412#00640164010EE8B8
(1619540157.993333) can0 601#08D200D300000000
(1619540157.993752) can0 075#0000000000080FEB
(1619540157.994008) can0 513#0000000000000000
(1619540157.994250) can0 512#F0F00000804F4740
(1619540157.994529) can0 070#ED7F00FFF37F0FC4
(1619540157.994759) can0 511#0000000000000000
(1619540157.994983) can0 501#000000FF00500000
(1619540157.995219) can0 576#000000001A331F7E
(1619540157.995550) can0 420#0088414000400080
(1619540157.995798) can0 421#FF00FFA000B00000
(1619540157.996027) can0 422#450007FF3F5D007D
(1619540158.002424) can0 410#12002913000000C0
(1619540158.002663) can0 002#0C80040000000001
(1619540158.002904) can0 411#05FFFF000000C004
(1619540158.003097) can0 412#00640164010EE8B8
(1619540158.003376) can0 601#08D200D300000000
(1619540158.005076) can0 514#00008D00C83A0900
(1619540158.005304) can0 620#2000070000000000
(1619540158.005527) can0 420#0088414000400080
(1619540158.005763) can0 421#FF00FFA100B00000
(1619540158.006011) can0 422#450007FF7F5D007D
(1619540158.012424) can0 410#12002913000000C0
(1619540158.012723) can0 002#0C80150000000001
(1619540158.012884) can0 411#05FF3F000000C004
(1619540158.013142) can0 412#00640164010EE8B8
(1619540158.013342) can0 600#00000060200C005D
(1619540158.013815) can0 601#08D200D300000000
(1619540158.013868) can0 075#0000000000080050
(1619540158.014103) can0 513#0000000000000000
(1619540158.014355) can0 070#F27F00FF168000C2
(1619540158.014560) can0 512#F0F0000080505780
(1619540158.014800) can0 511#0000000000000000
(1619540158.015100) can0 501#000000FF00510000
(1619540158.015300) can0 576#000000001C07102C
(1619540158.015559) can0 420#0088414000400080
(1619540158.015795) can0 421#FF00FFA200B00000
(1619540158.016083) can0 422#450007FFBF5D007D
(1619540158.022594) can0 410#12002913000000C0
(1619540158.022634) can0 002#0C80260000000001
(1619540158.022889) can0 411#05FF3F000000C004
(1619540158.023128) can0 412#00640164010EE8B8
(1619540158.023356) can0 601#08D200D300000000
(1619540158.025230) can0 514#00008D00C83A0B00
(1619540158.025304) can0 620#2000070000000000
(1619540158.025597) can0 420#0088414000400080
(1619540158.025775) can0 421#FF00FFA300B00000
(1619540158.026078) can0 422#450007FF3F5D007D
(1619540158.032404) can0 410#12002913000000C0
(1619540158.032605) can0 002#0C80370000000001
(1619540158.033220) can0 411#05FF3F000000C004
(1619540158.033229) can0 412#00640164010EE8B8
(1619540158.033311) can0 601#08D200D300000000
(1619540158.034108) can0 075#000000000008014D
(1619540158.034116) can0 513#0000000000000000
(1619540158.034229) can0 512#F0F0000080515780
(1619540158.034730) can0 070#F37F00FF04800199
(1619540158.034739) can0 511#0000000000000000
(1619540158.035024) can0 501#000000FF00520000
(1619540158.035255) can0 576#000000001E0D11F0
(1619540158.035528) can0 420#0088414000400080
(1619540158.035770) can0 421#FF00FFA400B00000
(1619540158.036087) can0 422#450007FF7F5D007D
(1619540158.042569) can0 410#12002913000000C0
(1619540158.042651) can0 002#0C80C80000000001
(1619540158.042885) can0 411#05FF3F000000C004
(1619540158.043376) can0 412#00640164010EE8B8
(1619540158.043386) can0 601#08D200D300000000
(1619540158.045317) can0 514#00008D00083B0D00
(1619540158.045326) can0 620#2000070000000000
(1619540158.045511) can0 420#0088414000400080
(1619540158.045747) can0 421#FF00FFA500B00000
(1619540158.046134) can0 422#450007FFBF5D007D
(1619540158.052398) can0 410#12002913000000C0
(1619540158.052593) can0 002#0C80D90000000001
(1619540158.053111) can0 411#05FF3F000000C004
(1619540158.053121) can0 412#00640164010EE8B8
(1619540158.053335) can0 601#08D200D300000000
(1619540158.054010) can0 075#000000000008026A
(1619540158.054019) can0 513#0000000000000000
(1619540158.054228) can0 512#F0F0000080525780
(1619540158.054463) can0 070#F67F00FFF57F02CC
(1619540158.054717) can0 511#0000000000000000
(1619540158.054961) can0 501#000000FF00530000
(1619540158.055197) can0 576#0000000020021255
(1619540158.055528) can0 420#0088414000400080
(1619540158.055765) can0 421#FF00FFA600B00000
(1619540158.056042) can0 422#450007FF3F5D007D
(1619540158.062386) can0 410#12002913000000C0
(1619540158.062633) can0 002#0C80EA0000000001
(1619540158.062924) can0 411#05FF3F000000C004
(1619540158.063097) can0 412#00640164010EE8B8
(1619540158.063353) can0 600#00000060210C005D
(1619540158.063595) can0 601#08D200D300000000
(1619540158.065190) can0 514#00008D00083B0F00
(1619540158.065246) can0 620#2000070000000000
(1619540158.065494) can0 420#0088414000400080
(1619540158.065751) can0 421#FF00FFA700B00000
(1619540158.066027) can0 422#450007FF7F5D007D
(1619540158.072567) can0 410#12002913000000C0
(1619540158.072646) can0 002#0C80FB0000000001
(1619540158.072921) can0 411#05FF3F000000C004
(1619540158.073123) can0 412#00640164010EE8B8
(1619540158.073355) can0 601#08D200D300000000
(1619540158.073798) can0 075#0000000000080377
(1619540158.074055) can0 513#0000000000000000
(1619540158.074292) can0 512#F0F0000080535780
(1619540158.074481) can0 070#ED7F00FFF57F035D
(1619540158.074723) can0 511#0000000000000000
(1619540158.074974) can0 501#000000FF00540000
(1619540158.075209) can0 576#0000000022081389
(1619540158.075704) can0 420#0088414000400080
(1619540158.075768) can0 421#FF00FFA800B00000
(1619540158.076035) can0 422#450007FFBF5D007D
(1619540158.082397) can0 410#12002913000000C0
(1619540158.082602) can0 002#0C808C0000000001
(1619540158.082930) can0 411#05FF3F000000C004
(1619540158.083059) can0 412#00640164010EE8B8
(1619540158.083353) can0 601#08D200D300000000
(1619540158.085053) can0 514#00008D00C83A0100
(1619540158.085262) can0 620#2000070000000000
(1619540158.085499) can0 420#0088414000400080
(1619540158.085735) can0 421#FF00FFA900B00000
(1619540158.085988) can0 422#450007FF3F5D007D
(1619540158.092543) can0 410#12002913000000C0
(1619540158.092621) can0 002#0C809D0000000001
(1619540158.092925) can0 411#05FF3F000000C004
(1619540158.093051) can0 412#00640164010EE8B8
(1619540158.093286) can0 601#08D200D300000000
(1619540158.093717) can0 075#0000000000080424
(1619540158.093968) can0 513#0000000000000000
(1619540158.094204) can0 512#F0F0000080545780
(1619540158.094452) can0 070#F27F00FFFF7F04E4
(1619540158.094706) can0 511#0000000000000000
(1619540158.094947) can0 501#000000FF00550000
(1619540158.095242) can0 576#0000000024001485
(1619540158.095513) can0 420#0088414000400080
(1619540158.095748) can0 421#FF00FFAA00B00000
(1619540158.095989) can0 422#450007FF7F5D007D
(1619540158.102627) can0 410#12002913000000C0
(1619540158.102636) can0 002#0C80AE0000000001
(1619540158.102876) can0 411#05FF3F000000C004
(1619540158.103150) can0 412#00640164010EE8B8
(1619540158.103300) can0 601#08D200D300000000
(1619540158.105045) can0 514#00008D00C83A0300
(1619540158.105246) can0 620#2000070000000000
(1619540158.105481) can0 420#0088414000400080
(1619540158.105718) can0 421#FF00FFAB00B00000
(1619540158.105966) can0 422#450007FFBF5D007D
(1619540158.112394) can0 410#12002913000000C0
(1619540158.112585) can0 002#0C80BF0000000001
(1619540158.113341) can0 411#05FF3F000000C004
(1619540158.113350) can0 412#00640164010EE8B8
